!2-port S-parameter file
!Title: **.subckt s_param_testbench_lna
!Generated by ngspice at Wed Oct 26 01:08:22  2022
# Hz S RI R 50
!freq            ReS11           ImS11           ReS21           ImS21           ReS12           ImS12           ReS22           ImS22         
 5.000000e+08   9.995859e-01  -2.447968e-02  -1.080299e+00   3.160854e-02   2.008063e-06   2.350273e-03   9.442998e-01  -2.444761e-03  
 1.497500e+09   9.962971e-01  -7.320781e-02  -1.088588e+00   1.147542e-01   1.028478e-04   7.114948e-03   9.585748e-01  -2.514830e-02  
 2.495000e+09   9.898281e-01  -1.213923e-01  -1.079116e+00   2.049868e-01   4.114404e-04   1.191850e-02   9.640549e-01  -5.614640e-02  
 3.492500e+09   9.802764e-01  -1.687824e-01  -1.057131e+00   2.921225e-01   9.197457e-04   1.671306e-02   9.642850e-01  -8.697010e-02  
 4.490000e+09   9.677441e-01  -2.151055e-01  -1.025974e+00   3.749168e-01   1.616481e-03   2.148616e-02   9.618823e-01  -1.168639e-01  
 5.487500e+09   9.523686e-01  -2.600924e-01  -9.870760e-01   4.528964e-01   2.497784e-03   2.623138e-02   9.577856e-01  -1.459778e-01  
 6.485000e+09   9.343213e-01  -3.034930e-01  -9.413695e-01   5.255540e-01   3.562895e-03   3.094218e-02   9.523612e-01  -1.744520e-01  
 7.482500e+09   9.138020e-01  -3.450824e-01  -8.896862e-01   5.923769e-01   4.812050e-03   3.561112e-02   9.457751e-01  -2.023576e-01  
 8.480000e+09   8.910335e-01  -3.846650e-01  -8.328590e-01   6.529040e-01   6.245555e-03   4.022972e-02   9.381175e-01  -2.297177e-01  
 9.477500e+09   8.662563e-01  -4.220769e-01  -7.717438e-01   7.067603e-01   7.863303e-03   4.478871e-02   9.294479e-01  -2.565264e-01  
 1.047500e+10   8.397242e-01  -4.571876e-01  -7.072160e-01   7.536756e-01   9.664475e-03   4.927806e-02   9.198135e-01  -2.827611e-01  
 1.147250e+10   8.116983e-01  -4.899003e-01  -6.401567e-01   7.934931e-01   1.164733e-02   5.368722e-02   9.092583e-01  -3.083900e-01  
 1.247000e+10   7.824424e-01  -5.201521e-01  -5.714368e-01   8.261706e-01   1.380904e-02   5.800532e-02   8.978266e-01  -3.333763e-01  
 1.346750e+10   7.522184e-01  -5.479132e-01  -5.018999e-01   8.517771e-01   1.614563e-02   6.222132e-02   8.855645e-01  -3.576821e-01  
 1.446500e+10   7.212811e-01  -5.731847e-01  -4.323476e-01   8.704861e-01   1.865191e-02   6.632427e-02   8.725213e-01  -3.812698e-01  
 1.546250e+10   6.898752e-01  -5.959972e-01  -3.635251e-01   8.825647e-01   2.132144e-02   7.030351e-02   8.587493e-01  -4.041039e-01  
 1.646000e+10   6.582309e-01  -6.164071e-01  -2.961105e-01   8.883617e-01   2.414664e-02   7.414885e-02   8.443036e-01  -4.261525e-01  
 1.745750e+10   6.265616e-01  -6.344941e-01  -2.307061e-01   8.882941e-01   2.711882e-02   7.785082e-02   8.292420e-01  -4.473877e-01  
 1.845500e+10   5.950615e-01  -6.503574e-01  -1.678327e-01   8.828321e-01   3.022829e-02   8.140076e-02   8.136240e-01  -4.677863e-01  
 1.945250e+10   5.639043e-01  -6.641121e-01  -1.079264e-01   8.724854e-01   3.346453e-02   8.479101e-02   7.975104e-01  -4.873304e-01  
 2.045000e+10   5.332419e-01  -6.758858e-01  -5.133855e-02   8.577882e-01   3.681632e-02   8.801499e-02   7.809626e-01  -5.060074e-01  
 2.144750e+10   5.032045e-01  -6.858146e-01   1.662889e-03   8.392867e-01   4.027193e-02   9.106729e-02   7.640418e-01  -5.238104e-01  
 2.244500e+10   4.739006e-01  -6.940404e-01   5.088937e-02   8.175264e-01   4.381928e-02   9.394372e-02   7.468084e-01  -5.407374e-01  
 2.344250e+10   4.454181e-01  -7.007075e-01   9.622639e-02   7.930419e-01   4.744612e-02   9.664129e-02   7.293216e-01  -5.567920e-01  
 2.444000e+10   4.178250e-01  -7.059597e-01   1.376270e-01   7.663476e-01   5.114018e-02   9.915820e-02   7.116381e-01  -5.719824e-01  
 2.543750e+10   3.911710e-01  -7.099383e-01   1.751042e-01   7.379307e-01   5.488934e-02   1.014938e-01   6.938124e-01  -5.863211e-01  
 2.643500e+10   3.654893e-01  -7.127801e-01   2.087235e-01   7.082453e-01   5.868176e-02   1.036486e-01   6.758962e-01  -5.998249e-01  
 2.743250e+10   3.407982e-01  -7.146157e-01   2.385942e-01   6.777085e-01   6.250599e-02   1.056240e-01   6.579377e-01  -6.125139e-01  
 2.843000e+10   3.171030e-01  -7.155682e-01   2.648623e-01   6.466978e-01   6.635107e-02   1.074224e-01   6.399818e-01  -6.244112e-01  
 2.942750e+10   2.943976e-01  -7.157526e-01   2.877021e-01   6.155497e-01   7.020663e-02   1.090470e-01   6.220697e-01  -6.355425e-01  
 3.042500e+10   2.726668e-01  -7.152752e-01   3.073098e-01   5.845599e-01   7.406290e-02   1.105017e-01   6.042391e-01  -6.459355e-01  
 3.142250e+10   2.518875e-01  -7.142332e-01   3.238967e-01   5.539838e-01   7.791082e-02   1.117910e-01   5.865239e-01  -6.556191e-01  
 3.242000e+10   2.320306e-01  -7.127146e-01   3.376836e-01   5.240385e-01   8.174201e-02   1.129199e-01   5.689543e-01  -6.646239e-01  
 3.341750e+10   2.130620e-01  -7.107987e-01   3.488956e-01   4.949043e-01   8.554881e-02   1.138940e-01   5.515574e-01  -6.729807e-01  
 3.441500e+10   1.949445e-01  -7.085561e-01   3.577582e-01   4.667280e-01   8.932426e-02   1.147188e-01   5.343563e-01  -6.807207e-01  
 3.541250e+10   1.776383e-01  -7.060490e-01   3.644933e-01   4.396251e-01   9.306210e-02   1.154005e-01   5.173716e-01  -6.878755e-01  
 3.641000e+10   1.611023e-01  -7.033322e-01   3.693166e-01   4.136833e-01   9.675676e-02   1.159451e-01   5.006203e-01  -6.944760e-01  
 3.740750e+10   1.452949e-01  -7.004533e-01   3.724354e-01   3.889651e-01   1.004033e-01   1.163589e-01   4.841171e-01  -7.005529e-01  
 3.840500e+10   1.301745e-01  -6.974531e-01   3.740467e-01   3.655112e-01   1.039974e-01   1.166481e-01   4.678738e-01  -7.061360e-01  
 3.940250e+10   1.157003e-01  -6.943667e-01   3.743359e-01   3.433428e-01   1.075353e-01   1.168189e-01   4.518999e-01  -7.112545e-01  
 4.040000e+10   1.018325e-01  -6.912237e-01   3.734764e-01   3.224648e-01   1.110139e-01   1.168776e-01   4.362029e-01  -7.159366e-01  
 4.139750e+10   8.853265e-02  -6.880489e-01   3.716289e-01   3.028684e-01   1.144305e-01   1.168302e-01   4.207882e-01  -7.202093e-01  
 4.239500e+10   7.576415e-02  -6.848631e-01   3.689412e-01   2.845328e-01   1.177828e-01   1.166826e-01   4.056597e-01  -7.240985e-01  
 4.339250e+10   6.349210e-02  -6.816829e-01   3.655486e-01   2.674279e-01   1.210690e-01   1.164406e-01   3.908196e-01  -7.276293e-01  
 4.439000e+10   5.168357e-02  -6.785220e-01   3.615738e-01   2.515161e-01   1.242878e-01   1.161097e-01   3.762686e-01  -7.308250e-01  
 4.538750e+10   4.030765e-02  -6.753912e-01   3.571276e-01   2.367537e-01   1.274380e-01   1.156953e-01   3.620065e-01  -7.337083e-01  
 4.638500e+10   2.933540e-02  -6.722989e-01   3.523097e-01   2.230926e-01   1.305190e-01   1.152026e-01   3.480320e-01  -7.363003e-01  
 4.738250e+10   1.873989e-02  -6.692512e-01   3.472086e-01   2.104815e-01   1.335302e-01   1.146367e-01   3.343427e-01  -7.386212e-01  
 4.838000e+10   8.496118e-03  -6.662528e-01   3.419032e-01   1.988671e-01   1.364715e-01   1.140022e-01   3.209356e-01  -7.406898e-01  
 4.937750e+10  -1.419049e-03  -6.633067e-01   3.364626e-01   1.881948e-01   1.393429e-01   1.133036e-01   3.078070e-01  -7.425240e-01  
 5.037500e+10  -1.102697e-02  -6.604149e-01   3.309475e-01   1.784097e-01   1.421445e-01   1.125454e-01   2.949527e-01  -7.441405e-01  
 5.137250e+10  -2.034729e-02  -6.575781e-01   3.254107e-01   1.694573e-01   1.448768e-01   1.117316e-01   2.823681e-01  -7.455550e-01  
 5.237000e+10  -2.939809e-02  -6.547963e-01   3.198975e-01   1.612836e-01   1.475403e-01   1.108661e-01   2.700480e-01  -7.467822e-01  
 5.336750e+10  -3.819594e-02  -6.520692e-01   3.144470e-01   1.538361e-01   1.501357e-01   1.099526e-01   2.579870e-01  -7.478359e-01  
 5.436500e+10  -4.675603e-02  -6.493955e-01   3.090920e-01   1.470638e-01   1.526637e-01   1.089947e-01   2.461797e-01  -7.487289e-01  
 5.536250e+10  -5.509227e-02  -6.467737e-01   3.038600e-01   1.409175e-01   1.551252e-01   1.079957e-01   2.346201e-01  -7.494733e-01  
 5.636000e+10  -6.321738e-02  -6.442022e-01   2.987740e-01   1.353500e-01   1.575211e-01   1.069586e-01   2.233025e-01  -7.500802e-01  
 5.735750e+10  -7.114298e-02  -6.416789e-01   2.938523e-01   1.303163e-01   1.598525e-01   1.058864e-01   2.122208e-01  -7.505602e-01  
 5.835500e+10  -7.887970e-02  -6.392018e-01   2.891098e-01   1.257736e-01   1.621205e-01   1.047819e-01   2.013690e-01  -7.509228e-01  
 5.935250e+10  -8.643727e-02  -6.367686e-01   2.845578e-01   1.216814e-01   1.643261e-01   1.036478e-01   1.907411e-01  -7.511773e-01  
 6.035000e+10  -9.382457e-02  -6.343773e-01   2.802049e-01   1.180015e-01   1.664706e-01   1.024865e-01   1.803311e-01  -7.513319e-01  
 6.134750e+10  -1.010497e-01  -6.320256e-01   2.760568e-01   1.146979e-01   1.685551e-01   1.013004e-01   1.701330e-01  -7.513946e-01  
 6.234500e+10  -1.081202e-01  -6.297114e-01   2.721172e-01   1.117369e-01   1.705808e-01   1.000916e-01   1.601408e-01  -7.513726e-01  
 6.334250e+10  -1.150427e-01  -6.274327e-01   2.683879e-01   1.090871e-01   1.725489e-01   9.886213e-02   1.503488e-01  -7.512727e-01  
 6.434000e+10  -1.218236e-01  -6.251873e-01   2.648688e-01   1.067189e-01   1.744607e-01   9.761402e-02   1.407511e-01  -7.511012e-01  
 6.533750e+10  -1.284686e-01  -6.229734e-01   2.615587e-01   1.046050e-01   1.763174e-01   9.634905e-02   1.313422e-01  -7.508639e-01  
 6.633500e+10  -1.349831e-01  -6.207893e-01   2.584550e-01   1.027201e-01   1.781202e-01   9.506892e-02   1.221165e-01  -7.505661e-01  
 6.733250e+10  -1.413718e-01  -6.186332e-01   2.555540e-01   1.010405e-01   1.798703e-01   9.377524e-02   1.130686e-01  -7.502130e-01  
 6.833000e+10  -1.476393e-01  -6.165035e-01   2.528514e-01   9.954458e-02   1.815690e-01   9.246950e-02   1.041932e-01  -7.498091e-01  
 6.932750e+10  -1.537897e-01  -6.143988e-01   2.503420e-01   9.821209e-02   1.832175e-01   9.115311e-02   9.548512e-02  -7.493588e-01  
 7.032500e+10  -1.598269e-01  -6.123177e-01   2.480203e-01   9.702459e-02   1.848170e-01   8.982740e-02   8.693937e-02  -7.488660e-01  
 7.132250e+10  -1.657546e-01  -6.102589e-01   2.458801e-01   9.596504e-02   1.863685e-01   8.849360e-02   7.855105e-02  -7.483344e-01  
 7.232000e+10  -1.715761e-01  -6.082214e-01   2.439149e-01   9.501781e-02   1.878734e-01   8.715288e-02   7.031540e-02  -7.477675e-01  
 7.331750e+10  -1.772944e-01  -6.062040e-01   2.421182e-01   9.416860e-02   1.893327e-01   8.580631e-02   6.222780e-02  -7.471684e-01  
 7.431500e+10  -1.829126e-01  -6.042059e-01   2.404831e-01   9.340431e-02   1.907476e-01   8.445492e-02   5.428378e-02  -7.465400e-01  
 7.531250e+10  -1.884334e-01  -6.022261e-01   2.390027e-01   9.271300e-02   1.921191e-01   8.309965e-02   4.647899e-02  -7.458850e-01  
 7.631000e+10  -1.938595e-01  -6.002639e-01   2.376700e-01   9.208379e-02   1.934484e-01   8.174141e-02   3.880921e-02  -7.452060e-01  
 7.730750e+10  -1.991932e-01  -5.983185e-01   2.364781e-01   9.150678e-02   1.947365e-01   8.038102e-02   3.127037e-02  -7.445051e-01  
 7.830500e+10  -2.044370e-01  -5.963895e-01   2.354200e-01   9.097300e-02   1.959844e-01   7.901927e-02   2.385851e-02  -7.437846e-01  
 7.930250e+10  -2.095930e-01  -5.944761e-01   2.344889e-01   9.047432e-02   1.971932e-01   7.765687e-02   1.656981e-02  -7.430463e-01  
 8.030000e+10  -2.146634e-01  -5.925780e-01   2.336781e-01   9.000341e-02   1.983638e-01   7.629452e-02   9.400568e-03  -7.422922e-01  
 8.129750e+10  -2.196501e-01  -5.906947e-01   2.329811e-01   8.955365e-02   1.994972e-01   7.493285e-02   2.347219e-03  -7.415237e-01  
 8.229500e+10  -2.245552e-01  -5.888259e-01   2.323914e-01   8.911910e-02   2.005945e-01   7.357245e-02  -4.593703e-03  -7.407426e-01  
 8.329250e+10  -2.293804e-01  -5.869711e-01   2.319028e-01   8.869444e-02   2.016564e-01   7.221389e-02  -1.142553e-02  -7.399501e-01  
 8.429000e+10  -2.341276e-01  -5.851302e-01   2.315092e-01   8.827490e-02   2.026839e-01   7.085766e-02  -1.815150e-02  -7.391476e-01  
 8.528750e+10  -2.387985e-01  -5.833029e-01   2.312047e-01   8.785626e-02   2.036778e-01   6.950426e-02  -2.477473e-02  -7.383363e-01  
 8.628500e+10  -2.433947e-01  -5.814890e-01   2.309839e-01   8.743476e-02   2.046391e-01   6.815414e-02  -3.129822e-02  -7.375172e-01  
 8.728250e+10  -2.479178e-01  -5.796883e-01   2.308410e-01   8.700707e-02   2.055686e-01   6.680771e-02  -3.772489e-02  -7.366913e-01  
 8.828000e+10  -2.523695e-01  -5.779006e-01   2.307710e-01   8.657030e-02   2.064670e-01   6.546536e-02  -4.405753e-02  -7.358595e-01  
 8.927750e+10  -2.567511e-01  -5.761260e-01   2.307688e-01   8.612188e-02   2.073353e-01   6.412745e-02  -5.029886e-02  -7.350227e-01  
 9.027500e+10  -2.610642e-01  -5.743641e-01   2.308296e-01   8.565962e-02   2.081740e-01   6.279432e-02  -5.645149e-02  -7.341816e-01  
 9.127250e+10  -2.653101e-01  -5.726151e-01   2.309488e-01   8.518160e-02   2.089841e-01   6.146628e-02  -6.251795e-02  -7.333369e-01  
 9.227000e+10  -2.694904e-01  -5.708789e-01   2.311219e-01   8.468620e-02   2.097662e-01   6.014361e-02  -6.850066e-02  -7.324892e-01  
 9.326750e+10  -2.736063e-01  -5.691553e-01   2.313447e-01   8.417205e-02   2.105211e-01   5.882659e-02  -7.440197e-02  -7.316391e-01  
 9.426500e+10  -2.776591e-01  -5.674444e-01   2.316134e-01   8.363801e-02   2.112494e-01   5.751546e-02  -8.022416e-02  -7.307871e-01  
 9.526250e+10  -2.816501e-01  -5.657461e-01   2.319239e-01   8.308313e-02   2.119518e-01   5.621044e-02  -8.596940e-02  -7.299337e-01  
 9.626000e+10  -2.855806e-01  -5.640605e-01   2.322727e-01   8.250669e-02   2.126290e-01   5.491175e-02  -9.163981e-02  -7.290793e-01  
 9.725750e+10  -2.894519e-01  -5.623875e-01   2.326565e-01   8.190810e-02   2.132816e-01   5.361959e-02  -9.723742e-02  -7.282242e-01  
 9.825500e+10  -2.932650e-01  -5.607272e-01   2.330718e-01   8.128695e-02   2.139102e-01   5.233412e-02  -1.027642e-01  -7.273688e-01  
 9.925250e+10  -2.970212e-01  -5.590795e-01   2.335156e-01   8.064295e-02   2.145155e-01   5.105552e-02  -1.082220e-01  -7.265134e-01  
 1.002500e+11  -3.007216e-01  -5.574445e-01   2.339849e-01   7.997594e-02   2.150981e-01   4.978393e-02  -1.136127e-01  -7.256583e-01  
 1.012475e+11  -3.043674e-01  -5.558221e-01   2.344771e-01   7.928589e-02   2.156584e-01   4.851948e-02  -1.189381e-01  -7.248036e-01  
 1.022450e+11  -3.079596e-01  -5.542125e-01   2.349895e-01   7.857284e-02   2.161971e-01   4.726230e-02  -1.241998e-01  -7.239497e-01  
 1.032425e+11  -3.114993e-01  -5.526156e-01   2.355195e-01   7.783694e-02   2.167147e-01   4.601251e-02  -1.293994e-01  -7.230966e-01  
 1.042400e+11  -3.149877e-01  -5.510314e-01   2.360649e-01   7.707841e-02   2.172118e-01   4.477020e-02  -1.345387e-01  -7.222445e-01  
 1.052375e+11  -3.184256e-01  -5.494600e-01   2.366235e-01   7.629753e-02   2.176888e-01   4.353547e-02  -1.396190e-01  -7.213936e-01  
 1.062350e+11  -3.218142e-01  -5.479013e-01   2.371933e-01   7.549466e-02   2.181462e-01   4.230839e-02  -1.446419e-01  -7.205439e-01  
 1.072325e+11  -3.251543e-01  -5.463554e-01   2.377721e-01   7.467019e-02   2.185846e-01   4.108904e-02  -1.496088e-01  -7.196956e-01  
 1.082300e+11  -3.284471e-01  -5.448223e-01   2.383584e-01   7.382460e-02   2.190044e-01   3.987748e-02  -1.545210e-01  -7.188488e-01  
 1.092275e+11  -3.316934e-01  -5.433021e-01   2.389502e-01   7.295835e-02   2.194061e-01   3.867378e-02  -1.593799e-01  -7.180034e-01  
 1.102250e+11  -3.348942e-01  -5.417946e-01   2.395461e-01   7.207197e-02   2.197901e-01   3.747797e-02  -1.641868e-01  -7.171596e-01  
 1.112225e+11  -3.380504e-01  -5.402999e-01   2.401445e-01   7.116603e-02   2.201568e-01   3.629011e-02  -1.689428e-01  -7.163173e-01  
 1.122200e+11  -3.411629e-01  -5.388181e-01   2.407440e-01   7.024110e-02   2.205068e-01   3.511022e-02  -1.736492e-01  -7.154766e-01  
 1.132175e+11  -3.442325e-01  -5.373490e-01   2.413433e-01   6.929777e-02   2.208403e-01   3.393833e-02  -1.783071e-01  -7.146376e-01  
 1.142150e+11  -3.472602e-01  -5.358928e-01   2.419412e-01   6.833666e-02   2.211578e-01   3.277448e-02  -1.829177e-01  -7.138001e-01  
 1.152125e+11  -3.502467e-01  -5.344494e-01   2.425365e-01   6.735839e-02   2.214597e-01   3.161867e-02  -1.874820e-01  -7.129642e-01  
 1.162100e+11  -3.531930e-01  -5.330187e-01   2.431282e-01   6.636361e-02   2.217463e-01   3.047092e-02  -1.920010e-01  -7.121299e-01  
 1.172075e+11  -3.560997e-01  -5.316008e-01   2.437153e-01   6.535296e-02   2.220181e-01   2.933124e-02  -1.964757e-01  -7.112971e-01  
 1.182050e+11  -3.589678e-01  -5.301956e-01   2.442968e-01   6.432708e-02   2.222754e-01   2.819964e-02  -2.009072e-01  -7.104658e-01  
 1.192025e+11  -3.617979e-01  -5.288032e-01   2.448720e-01   6.328662e-02   2.225185e-01   2.707610e-02  -2.052962e-01  -7.096360e-01  
 1.202000e+11  -3.645909e-01  -5.274234e-01   2.454400e-01   6.223223e-02   2.227478e-01   2.596064e-02  -2.096438e-01  -7.088076e-01  
 1.211975e+11  -3.673475e-01  -5.260563e-01   2.460001e-01   6.116456e-02   2.229636e-01   2.485323e-02  -2.139507e-01  -7.079807e-01  
 1.221950e+11  -3.700684e-01  -5.247018e-01   2.465516e-01   6.008425e-02   2.231662e-01   2.375387e-02  -2.182179e-01  -7.071550e-01  
 1.231925e+11  -3.727544e-01  -5.233599e-01   2.470939e-01   5.899193e-02   2.233560e-01   2.266255e-02  -2.224462e-01  -7.063306e-01  
 1.241900e+11  -3.754061e-01  -5.220305e-01   2.476266e-01   5.788823e-02   2.235333e-01   2.157924e-02  -2.266362e-01  -7.055075e-01  
 1.251875e+11  -3.780242e-01  -5.207135e-01   2.481489e-01   5.677379e-02   2.236983e-01   2.050393e-02  -2.307889e-01  -7.046855e-01  
 1.261850e+11  -3.806094e-01  -5.194091e-01   2.486605e-01   5.564920e-02   2.238514e-01   1.943660e-02  -2.349048e-01  -7.038646e-01  
 1.271825e+11  -3.831624e-01  -5.181169e-01   2.491610e-01   5.451509e-02   2.239928e-01   1.837721e-02  -2.389848e-01  -7.030448e-01  
 1.281800e+11  -3.856838e-01  -5.168372e-01   2.496500e-01   5.337203e-02   2.241228e-01   1.732575e-02  -2.430295e-01  -7.022259e-01  
 1.291775e+11  -3.881742e-01  -5.155696e-01   2.501271e-01   5.222062e-02   2.242417e-01   1.628218e-02  -2.470395e-01  -7.014080e-01  
 1.301750e+11  -3.906343e-01  -5.143143e-01   2.505920e-01   5.106142e-02   2.243497e-01   1.524647e-02  -2.510156e-01  -7.005908e-01  
 1.311725e+11  -3.930647e-01  -5.130711e-01   2.510444e-01   4.989500e-02   2.244471e-01   1.421859e-02  -2.549582e-01  -6.997745e-01  
 1.321700e+11  -3.954659e-01  -5.118400e-01   2.514842e-01   4.872191e-02   2.245342e-01   1.319850e-02  -2.588681e-01  -6.989589e-01  
 1.331675e+11  -3.978386e-01  -5.106208e-01   2.519110e-01   4.754267e-02   2.246111e-01   1.218617e-02  -2.627458e-01  -6.981439e-01  
 1.341650e+11  -4.001832e-01  -5.094136e-01   2.523247e-01   4.635782e-02   2.246782e-01   1.118156e-02  -2.665919e-01  -6.973294e-01  
 1.351625e+11  -4.025005e-01  -5.082182e-01   2.527251e-01   4.516786e-02   2.247356e-01   1.018463e-02  -2.704069e-01  -6.965155e-01  
 1.361600e+11  -4.047908e-01  -5.070346e-01   2.531121e-01   4.397328e-02   2.247836e-01   9.195333e-03  -2.741913e-01  -6.957020e-01  
 1.371575e+11  -4.070548e-01  -5.058627e-01   2.534856e-01   4.277457e-02   2.248224e-01   8.213638e-03  -2.779456e-01  -6.948889e-01  
 1.381550e+11  -4.092929e-01  -5.047024e-01   2.538456e-01   4.157220e-02   2.248522e-01   7.239501e-03  -2.816704e-01  -6.940761e-01  
 1.391525e+11  -4.115057e-01  -5.035536e-01   2.541918e-01   4.036663e-02   2.248732e-01   6.272875e-03  -2.853661e-01  -6.932635e-01  
 1.401500e+11  -4.136937e-01  -5.024162e-01   2.545243e-01   3.915830e-02   2.248856e-01   5.313719e-03  -2.890332e-01  -6.924512e-01  
 1.411475e+11  -4.158573e-01  -5.012902e-01   2.548430e-01   3.794764e-02   2.248897e-01   4.361983e-03  -2.926721e-01  -6.916389e-01  
 1.421450e+11  -4.179971e-01  -5.001755e-01   2.551480e-01   3.673507e-02   2.248855e-01   3.417625e-03  -2.962833e-01  -6.908267e-01  
 1.431425e+11  -4.201135e-01  -4.990719e-01   2.554392e-01   3.552098e-02   2.248733e-01   2.480599e-03  -2.998672e-01  -6.900145e-01  
 1.441400e+11  -4.222069e-01  -4.979794e-01   2.557167e-01   3.430579e-02   2.248534e-01   1.550858e-03  -3.034241e-01  -6.892023e-01  
