# GHz S MA R 50

5.000000000000000e-01  9.9988560656292702e-01 -1.4028829823167095e+00  2.3502738578399778e-03  8.9951046747803204e+01  5.2381635530063097e-03  8.8435144642459321e+01
                         1.0807613192569077e+00  1.7832405713711603e+02  9.4430296469744668e-01 -1.4833654974619023e-01  2.5928019321836121e-01  1.7840076176869854e+02
                         8.0166761412423220e-03 -9.0635518722345168e+01  5.8053185191040517e-03  9.0795491514995092e+01  9.9982314852428689e-01 -7.4380695906037197e-01
1.497500000000000e+00  9.9898313044485698e-01 -4.2025353581970553e+00  7.1156913025136811e-03  8.9171837307872465e+01  1.5584134803050216e-02  8.5504964373953982e+01
                         1.0946197331318488e+00  1.7398235337930006e+02  9.5890462726380143e-01 -1.5028154395270825e+00  2.5544381130633426e-01  1.7694128308844472e+02
                         2.5055026168967074e-02 -9.4737134299979203e+01  1.7989052051796968e-02  8.9933677724459187e+01  9.9929819711697954e-01 -2.1855104165186114e+00
2.495000000000000e+00  9.9724408148100829e-01 -6.9918277016363817e+00  1.1925599584622660e-02  8.8022868586451409e+01  2.5770846166915048e-02  8.2829945900509856e+01
                         1.0984129139946597e+00  1.6924435126032839e+02  9.6568849451930927e-01 -3.3331317222158905e+00  2.5699682599726326e-01  1.7581446856441917e+02
                         4.2614185048865848e-02 -1.0023201937696048e+02  3.0405509691143296e-02  8.8084533976650562e+01  9.9941696729068130e-01 -3.6006812343316597e+00
3.492500000000000e+00  9.9470061774722951e-01 -9.7693075778399194e+00  1.6738348386751558e-02  8.6850101321566228e+01  3.5819110240968087e-02  8.0233190744747461e+01
                         1.0967504302106519e+00  1.6455265070323642e+02  9.6819902887733256e-01 -5.1536359420921363e+00  2.6084050829451877e-01  1.7439432838343913e+02
                         6.0100515353272967e-02 -1.0574165906450796e+02  4.2777442593830879e-02  8.6305856105556757e+01  1.0000837136517153e+00 -5.0214446802279991e+00
4.490000000000000e+00  9.9136220384633389e-01 -1.2531699482608762e+01  2.1546881035754594e-02  8.5697537917492838e+01  4.5706331852475329e-02  7.7652958599558232e+01
                         1.0923301953156106e+00  1.5992642045629978e+02  9.6895548410466203e-01 -6.9272002417596124e+00  2.6597143678275004e-01  1.7276028034207238e+02
                         7.7399758498192361e-02 -1.1111781733017864e+02  5.5084650266643873e-02  8.4638014628477904e+01  1.0011224013820088e+00 -6.4559899172897861e+00
5.487500000000001e+00  9.8724566689538829e-01 -1.5275024021267164e+01  2.6350032668197128e-02  8.4560626172121943e+01  5.5393378437684229e-02  7.5082086302595101e+01
                         1.0860175776243035e+00  1.5535309939761746e+02  9.6884610421893114e-01 -8.6658611584007499e+00  2.7216998693100403e-01  1.7095620506384861e+02
                         9.4475519881493636e-02 -1.1637892485759045e+02  6.7325628481227182e-02  8.3041156839245858e+01  1.0024259579519526e+00 -7.9072315829412361e+00
6.485000000000000e+00  9.8237685878826053e-01 -1.7995207862295604e+01  3.1146632625910380e-02  8.3431498868242414e+01  6.4839785788144769e-02  7.2525310811220166e+01
                         1.0781389253923865e+00  1.5082596121010988e+02  9.6820728956636148e-01 -1.0380269169003348e+01  2.7933315651802526e-01  1.6899578721423225e+02
                         1.1129775752571658e-01 -1.2154930553210004e+02  7.9494410258433887e-02  8.1487707105474740e+01  1.0039154156884382e+00 -9.3769796393508482e+00
7.482500000000001e+00  9.7678859432006071e-01 -2.0688224666405414e+01  3.5934769970836049e-02  8.2304364649480590e+01  7.4007619886484660e-02  6.9989105350444106e+01
                         1.0688554280743725e+00  1.4634326049342468e+02  9.6718102651870197e-01 -1.2076887630982366e+01  2.8736606689761685e-01  1.6688510378523986e+02
                         1.2783463481099946e-01 -1.2664431325127303e+02  9.1581166531640668e-02  7.9961692071520176e+01  1.0055207712876397e+00 -1.0866525720224415e+01
8.480000000000000e+00  9.7051937659546506e-01 -2.3350173914824424e+01  4.0711636279280455e-02  8.1175431285302366e+01  8.2862464047925827e-02  6.7479583018059074e+01
                         1.0582711122850326e+00  1.4190600197417734e+02  9.6583366347396493e-01 -1.3759323800637668e+01  2.9616953838389859e-01  1.6463063315646312e+02
                         1.4405311545727709e-01 -1.3167216395862749e+02  1.0357360541669147e-01  7.8453934494982420e+01  1.0071734316098941e+00 -1.2376684033458927e+01
9.477500000000001e+00  9.6361241523929109e-01 -2.5977312516113933e+01  4.5473729531828697e-02  8.0042380677858830e+01  9.1373841454604504e-02  6.5002279031988621e+01
                         1.0464695955901109e+00  1.3751665553345157e+02  9.6419873092188313e-01 -1.5429435142099306e+01  3.0564118726950873e-01  1.6224134244140686e+02
                         1.5991967356923287e-01 -1.3663673043137598e+02  1.1545792895596214e-01  7.6959141920671854e+01  1.0088059195017296e+00 -1.3907736698169154e+01
1.047500000000000e+01  9.5611570097943688e-01 -2.8566069655470749e+01  5.0216822623392103e-02  7.8903914203062783e+01  9.9515417124206931e-02  6.2562155874953646e+01
                         1.0335286066149112e+00  1.3317848077830499e+02  9.6229450505313596e-01 -1.7088021793836575e+01  3.1567852704650345e-01  1.5972874193977944e+02
                         1.7540219855914008e-01 -1.4153911391837099e+02  1.2721952444322374e-01  7.5474331858333585e+01  1.0103512999228041e+00 -1.5459413376773984e+01
1.147250000000000e+01  9.4808039435639635e-01 -3.1113070349104724e+01  5.4936125522804212e-02  7.7759486886334670e+01  1.0726515417419956e-01  6.0163718308482530e+01
                         1.0195253308782966e+00  1.2889512267159552e+02  9.6013282842473935e-01 -1.8735217398121083e+01  3.2618119465551659e-01  1.5710629530698415e+02
                         1.9046979045218695e-01 -1.4637878768318427e+02  1.3884313699020201e-01  7.3997920117137255e+01  1.0117453699432482e+00 -1.7030907421990573e+01
1.247000000000000e+01  9.3956070397402747e-01 -3.3615167342023284e+01  5.9626392931519848e-02  7.6609138560222434e+01  1.1460543658070153e-01  5.7811093710624654e+01
                         1.0045386387285458e+00  1.2467041806248571e+02  9.5772248645902125e-01 -2.0370706408691195e+01  3.3705267233726244e-01  1.5438856844462197e+02
                         2.0509415289929744e-01 -1.5115435166496351e+02  1.5031331330120062e-01  7.2529235807461745e+01  1.0129272381473657e+00 -1.8620939331427561e+01
1.346750000000000e+01  9.3061345145704832e-01 -3.6069461262473816e+01  6.4281988384300159e-02  7.5453313371363265e+01  1.2152303951096023e-01  5.5508059043735400e+01
                         9.8864945137516758e-01  1.2050823140965750e+02  9.5507118494940468e-01 -2.1993926955599502e+01  3.4820154708587953e-01  1.5159066253027893e+02
                         2.1924938736833544e-01 -1.5586384428413567e+02  1.6161485422137686e-01  7.1068234033543277e+01  1.0138409755656408e+00 -2.0227752867716905e+01
1.446500000000000e+01  9.2129643738120470e-01 -3.8473319063123256e+01  6.8897043025669832e-02  7.4292795914012046e+01  1.2800896306482448e-01  5.3258027816283899e+01
                         9.7194161219641684e-01  1.1641238457717679e+02  9.5218699809739582e-01 -2.3604114394227160e+01  3.5954227654784909e-01  1.4872759518403942e+02
                         2.3291261892631407e-01 -1.6050501301693052e+02  1.7273270605084293e-01  6.9615274526554828e+01  1.0144364934308110e+00 -2.1849239637879428e+01
1.546250000000000e+01  9.1166904849450714e-01 -4.0824401259680464e+01  7.3465551940985918e-02  7.3128654422626227e+01  1.3405876044884982e-01  5.1064206134936555e+01
                         9.5450036564482255e-01  1.1238657958313199e+02  9.4907867020900860e-01 -2.5200390722472815e+01  3.7099517992108738e-01  1.4581382110913950e+02
                         2.4606436883074395e-01 -1.6507555140662711e+02  1.8365248418432054e-01  6.8171011456644010e+01  1.0146706940438361e+00 -2.3482969976896968e+01
1.646000000000000e+01  9.0179023649916501e-01 -4.3120668159136699e+01  7.7981486133646499e-02  7.1962113679137545e+01  1.3967157844156555e-01  4.8929344942491021e+01
                         9.3641226937558864e-01  1.0843436448714182e+02  9.4575605852101741e-01 -2.6781834323913831e+01  3.8248717518120789e-01  1.4286303268489925e+02
                         2.5868818361255874e-01 -1.6957314319307042e+02  1.9436053637652090e-01  6.6736298386293200e+01  1.0145076994849522e+00 -2.5126297425635830e+01
1.745750000000000e+01  8.9171867846836650e-01 -4.5360406583539650e+01  8.2438950580807371e-02  7.0794554831779735e+01  1.4485080350198268e-01  4.6856025649678514e+01
                         9.1776451918344504e-01  1.0455908886243648e+02  9.4223035860414206e-01 -2.8347484492752539e+01  3.9395176291749223e-01  1.3988791382767863e+02
                         2.7077128292853292e-01 -1.7399560975538154e+02  2.0484426567605962e-01  6.5312124598931319e+01  1.0139192757905335e+00 -2.6776398782844986e+01
1.845500000000000e+01  8.8151173362412483e-01 -4.7542230814149370e+01  8.6832213175190354e-02  6.9627448075329568e+01  1.4960311893306236e-01  4.4846449736688427e+01
                         8.9864360676505117e-01  1.0076389265704894e+02  9.3851373769577295e-01 -2.9896387939941672e+01  4.0532836400090483e-01  1.3690006598728823e+02
                         2.8230454223210055e-01 -1.7834093367601037e+02  2.1509192278510250e-01  6.3899528943347697e+01  1.0128849369226696e+00 -2.8430382831644092e+01
1.945250000000000e+01  8.7122496573783970e-01 -4.9665076888926734e+01  9.1155856339244598e-02  6.8462301333795267e+01  1.5393825066061390e-01  4.2902499991278674e+01
                         8.7913530302799237e-01  9.7051663210521383e+01  9.3461957869088097e-01 -3.1427626677428144e+01  4.1656332969839055e-01  1.3390995094030336e+02
                         2.9328181071624765e-01  1.7739269950641807e+02  2.2509309706281533e-01  6.2499605539873329e+01  1.0113916948291399e+00 -3.0085307661497186e+01
2.045000000000000e+01  8.6091145802413971e-01 -5.1728231811604537e+01  9.5404821068133125e-02  6.7300635952518832e+01  1.5786913816968787e-01  4.1025745377203883e+01
                         8.5932313059485510e-01  9.3425061837664586e+01  9.3056223405719618e-01 -3.2940325034876246e+01  4.2760889942250968e-01  1.3092689773707144e+02
                         3.0370067329459927e-01  1.7320686540900672e+02  2.3483904992164312e-01  6.1113452854667564e+01  1.0094336690430432e+00 -3.1738269462675415e+01
2.144750000000000e+01  8.5062120499868221e-01 -5.3731290497659742e+01  9.9574492988259794e-02  6.6143946701996342e+01  1.6141073012811138e-01  3.9217494827807514e+01
                         8.3928834734953661e-01  8.9886479320086238e+01  9.2635695457820144e-01 -3.4433685433145001e+01  4.3842320995377287e-01  1.2795918410081150e+02
                         3.1356166928192114e-01  1.6910288664471108e+02  2.4432192806911540e-01  5.9742107750019741e+01  1.0070116341987017e+00 -3.3386438082645427e+01
2.244500000000000e+01  8.4040100875267876e-01 -5.5674186044869494e+01  1.0366075355290834e-01  6.4993686213217046e+01  1.6458034913542988e-01  3.7478646743728362e+01
                         8.1910874899243802e-01  8.6438049137525226e+01  9.2201937185143790e-01 -3.5906960421500195e+01  4.4897035456739237e-01  1.2501398867323172e+02
                         3.2286863760891982e-01  1.6508184061865933e+02  2.5353567521469239e-01  5.8386605401970847e+01  1.0041325481888632e+00 -3.5027082488466753e+01
2.344250000000000e+01  8.3029409510357233e-01 -5.7557140929209112e+01  1.0765998902061295e-01  6.3851232464246131e+01  1.6739683843116751e-01  3.5809898634270837e+01
                         7.9885854397887124e-01  8.3081645734519100e+01  9.1756597991128686e-01 -3.7359498456820873e+01  4.5921959647746963e-01  1.2209757849423275e+02
                         3.3162772537695034e-01  1.6114451551690999e+02  2.6247547887774203e-01  5.7047902532192673e+01  1.0008085873971158e+00 -3.6657642392510311e+01
2.444000000000000e+01  8.2033945940024722e-01 -5.9380666325863558e+01  1.1156911148553797e-01  6.2717881142461103e+01  1.6988036582493135e-01  3.4211549332074654e+01
                         7.7860762592897848e-01  7.9818880842781084e+01  9.1301295241708924e-01 -3.8790740795751596e+01  4.6914577637992222e-01  1.1921529317514674e+02
                         3.3984810690380490e-01  1.5729147231746273e+02  2.7113829530429667e-01  5.5726827128428447e+01  9.9705645815220023e-01 -3.8275687190722685e+01
2.543750000000000e+01  8.1057210724764650e-01 -6.1145545503459218e+01  1.1538557571930556e-01  6.1594825233455403e+01  1.7205199080588868e-01  3.2683664550331578e+01
                         7.5842151793058332e-01  7.6651125876610777e+01  9.0837661721280016e-01 -4.0200200595044130e+01  4.7872819907961345e-01  1.1637168998171488e+02
                         3.4754087332378619e-01  1.5352300206384047e+02  2.7952203135947978e-01  5.4424170918803192e+01  9.9289703786545769e-01 -3.9878999033407723e+01
2.643500000000000e+01  8.0102303298375888e-01 -6.2852797764371338e+01  1.1910743569843824e-01  6.0483167612182307e+01  1.7393347955136210e-01  3.1225987061053427e+01
                         7.3836095808509539e-01  7.3579485989121139e+01  9.0367338338276293e-01 -4.1587491224278025e+01  4.8795056675074167e-01  1.1357053949939473e+02
                         3.5471921749417523e-01  1.4983917217527230e+02  2.8762618483895031e-01  5.3140612264252496e+01  9.8835387505877670e-01 -4.1465534764714363e+01
2.743250000000000e+01  7.9171902327134336e-01 -6.4503658139467902e+01  1.2273315836350052e-01  5.9383874668513890e+01  1.7554659940821299e-01  2.9838052334045049e+01
                         7.1848173480325161e-01  7.0604861848106907e+01  8.9891895895820328e-01 -4.2952315641813875e+01  4.9680113377758106e-01  1.1081498507023323e+02
                         3.6139790495741669e-01  1.4623976369898341e+02  2.9545146744712575e-01  5.1876746590590841e+01  9.8345325549226803e-01 -4.3033465811006074e+01
2.843000000000000e+01  7.8268266970735978e-01 -6.6099543499883211e+01  1.2626177771560521e-01  5.8297821108383175e+01  1.7691347121460366e-01  2.8519057027725196e+01
                         6.9883480343077509e-01  6.7727899521946071e+01  8.9412865462229774e-01 -4.4294456256079016e+01  5.0527134520384198e-01  1.0810754018666385e+02
                         3.6759311417177004e-01  1.4272442290698567e+02  3.0299967742669298e-01  5.0633013462543481e+01  9.7822309242661010e-01 -4.4581154745641648e+01
2.942750000000000e+01  7.7393264002270890e-01 -6.7642048643900651e+01  1.2969278740530216e-01  5.7225758772954478e+01  1.7805577445542869e-01  2.7268010765783977e+01
                         6.7946591637439768e-01  6.4949058636027644e+01  8.8931714307345944e-01 -4.5613786228402418e+01  5.1335628702226876e-01  1.0545020222907378e+02
                         3.7332225278758835e-01  1.3929255899807725e+02  3.1027358968176777e-01  4.9409837706339339e+01  9.7269256452058894e-01 -4.6107160990035801e+01
3.042500000000000e+01  7.6548402697723228e-01 -6.9132881149162955e+01  1.3302608337953878e-01  5.6168339117117632e+01  1.7899471706232253e-01  2.6083691191716436e+01
                         6.6041622471290795e-01  6.2268583675250220e+01  8.8449847943852344e-01 -4.6910247169301073e+01  5.2105393505111353e-01  1.0284449857548030e+02
                         3.7860355065948603e-01  1.3594338621296367e+02  3.1727696742620637e-01  4.8207460842438437e+01  9.6689139844986727e-01 -4.7610228743311929e+01
3.142250000000000e+01  7.5734825320884580e-01 -7.0573862660094477e+01  1.3626196664540111e-01  5.5126092694363386e+01  1.7975094172699513e-01  2.4964662281860956e+01
                         6.4172199816846698e-01  5.9686532391678774e+01  8.7968556288938837e-01 -4.8183842518582701e+01  5.2836512297487048e-01  1.0029152954159467e+02
                         3.8345576183394348e-01  1.3267598640239785e+02  3.2401440979457996e-01  4.7026106385267866e+01  9.6084934555790269e-01 -4.9089307958762525e+01
3.242000000000000e+01  7.4953338844211603e-01 -7.1966878430272445e+01  1.3940107608928312e-01  5.4099455822381834e+01  1.8034426338723419e-01  2.3909295570368300e+01
                         6.2341524138507387e-01  5.7202794065617944e+01  8.7489080686660559e-01 -4.9434671426637351e+01  5.3529260947548352e-01  9.7792027789110634e+01
                         3.8789810685109050e-01  1.2948927385130872e+02  3.3049101005069714e-01  4.5865859790586811e+01  9.5459604754432648e-01 -5.0543503706374239e+01
3.341750000000000e+01  7.4204461305617608e-01 -7.3313891271333333e+01  1.4244452298497159e-01  5.3088814015641930e+01  1.8079349649988410e-01  2.2915819459253012e+01
                         6.0552324964269533e-01  5.4817086103841163e+01  8.7012561625735974e-01 -5.0662849307608212e+01  5.4184145880662626e-01  9.5346415680343611e+01
                         3.9194980731108930e-01  1.2638205511565221e+02  3.3671266288029617e-01  4.4726769789430691e+01  9.4816063131713080e-01 -5.1972087073215448e+01
3.441500000000000e+01  7.3488441603252141e-01 -7.4616864793003458e+01  1.4539335094146361e-01  5.2094368307161361e+01  1.8111664075993267e-01  2.1982280360086328e+01
                         5.8806968605025034e-01  5.2528970035241478e+01  8.6540009634745241e-01 -5.1868578436009791e+01  5.4801820288039926e-01  9.2954838226648860e+01
                         3.9563048170692050e-01  1.2335297440346503e+02  3.4268555358154507e-01  4.3608784423773926e+01  9.4157094526775298e-01 -5.3374491496322072e+01
3.541250000000000e+01  7.2805257779084198e-01 -7.5877785278961795e+01  1.4824921536608549e-01  5.1116351750274397e+01  1.8133049828290909e-01  2.1106607625407385e+01
                         5.7107407076044003e-01  5.0337862766342511e+01  8.6072415789659928e-01 -5.3052087199350538e+01  5.5383103263462996e-01  9.0617197636871026e+01
                         3.9895930949541714e-01  1.2040066916789053e+02  3.4841643890191232e-01  4.2511814868939325e+01  9.3485425273277756e-01 -5.4750272830435733e+01
3.641000000000000e+01  7.2154704255656810e-01 -7.7098628239421160e+01  1.5101369745724258e-01  5.0154834760969841e+01  1.8145071271375623e-01  2.0286630742347402e+01
                         5.5455263387206988e-01  4.8243051992478144e+01  8.5610606781408227e-01 -5.4213656518215508e+01  5.5928894637589799e-01  8.8333195149817513e+01
                         4.0195521396923067e-01  1.1752361537800468e+02  3.5391201620137169e-01  4.1435660710414311e+01  9.2803612810364233e-01 -5.6099138002190791e+01
3.740750000000000e+01  7.1536384689673826e-01 -7.8281334270130415e+01  1.5368869919450812e-01  4.9209879699241768e+01  1.8149193295335636e-01  1.9520064561695452e+01
                         5.3851831555776264e-01  4.6243673073459746e+01  8.5155371657389889e-01 -5.5353586996497285e+01  5.6440212127446476e-01  8.6102353949790100e+01
                         4.0463696485343503e-01  1.1472025310081828e+02  3.5917980395464888e-01  4.0380128758561433e+01  9.2114097385997329e-01 -5.7420888318100516e+01
3.840500000000000e+01  7.0949716500480819e-01 -7.9427805897429067e+01  1.5627616081914095e-01  4.8281458425486001e+01  1.8146758182431263e-01  1.8804557271634344e+01
                         5.2298123399059937e-01  4.4338758448033566e+01  8.4707375311860533e-01 -5.6472216787507492e+01  5.6918149437097376e-01  8.3924054601790687e+01
                         4.0702261204931844e-01  1.1198898502316085e+02  3.6422657990521501e-01  3.9344950203595921e+01  9.1419156824992109e-01 -5.8715438088706179e+01
3.940250000000000e+01  7.0394010646430716e-01 -8.0539884306123199e+01  1.5877813496605886e-01  4.7369502437896514e+01  1.8138997598906201e-01  1.8137708489747812e+01
