!2-port S-parameter file
!Title: **.subckt s_param_testbench_lna
!Generated by ngspice at Wed Oct 26 01:10:00  2022
# Hz S RI R 50
!freq            ReS11           ImS11           ReS21           ImS21           ReS12           ImS12           ReS22           ImS22         
 5.000000e+08   9.995859e-01  -2.447968e-02  -8.891830e-05  -8.016183e-03   1.430463e-04   5.236210e-03   9.997389e-01  -1.297922e-02  
 1.497500e+09   9.962971e-01  -7.320781e-02  -2.069155e-03  -2.496944e-02   1.221371e-03   1.553620e-02   9.985713e-01  -3.810834e-02  
 2.495000e+09   9.898281e-01  -1.213923e-01  -7.569759e-03  -4.193647e-02   3.216580e-03   2.556932e-02   9.974441e-01  -6.276577e-02  
 3.492500e+09   9.802764e-01  -1.687824e-01  -1.630529e-02  -5.784643e-02   6.076305e-03   3.529996e-02   9.962454e-01  -8.753592e-02  
 4.490000e+09   9.677441e-01  -2.151055e-01  -2.788612e-02  -7.220171e-02   9.773499e-03   4.464916e-02   9.947738e-01  -1.125662e-01  
 5.487500e+09   9.523686e-01  -2.600924e-01  -4.197601e-02  -8.463828e-02   1.426019e-02   5.352638e-02   9.928950e-01  -1.379033e-01  
 6.485000e+09   9.343213e-01  -3.034930e-01  -5.823456e-02  -9.484686e-02   1.947038e-02   6.184741e-02   9.905008e-01  -1.635675e-01  
 7.482500e+09   9.138020e-01  -3.450824e-01  -7.629754e-02  -1.025689e-01   2.532532e-02   6.953960e-02   9.874908e-01  -1.895625e-01  
 8.480000e+09   8.910335e-01  -3.846650e-01  -9.577624e-02  -1.076021e-01   3.173737e-02   7.654363e-02   9.837663e-01  -2.158754e-01  
 9.477500e+09   8.662563e-01  -4.220769e-01  -1.162640e-01  -1.098043e-01   3.861296e-02   8.281436e-02   9.792318e-01  -2.424757e-01  
 1.047500e+10   8.397242e-01  -4.571876e-01  -1.373457e-01  -1.090967e-01   4.585532e-02   8.832105e-02   9.737963e-01  -2.693149e-01  
 1.147250e+10   8.116983e-01  -4.899003e-01  -1.586073e-01  -1.054631e-01   5.336692e-02   9.304722e-02   9.673772e-01  -2.963276e-01  
 1.247000e+10   7.824424e-01  -5.201521e-01  -1.796466e-01  -9.894802e-02   6.105174e-02   9.699016e-02   9.599023e-01  -3.234334e-01  
 1.346750e+10   7.522184e-01  -5.479132e-01  -2.000818e-01  -8.965248e-02   6.881732e-02   1.001600e-01   9.513130e-01  -3.505383e-01  
 1.446500e+10   7.212811e-01  -5.731847e-01  -2.195599e-01  -7.772862e-02   7.657654e-02   1.025784e-01   9.415658e-01  -3.775384e-01  
 1.546250e+10   6.898752e-01  -5.959972e-01  -2.377637e-01  -6.337268e-02   8.424911e-02   1.042777e-01   9.306342e-01  -4.043224e-01  
 1.646000e+10   6.582309e-01  -6.164071e-01  -2.544164e-01  -4.681743e-02   9.176272e-02   1.052984e-01   9.185089e-01  -4.307752e-01  
 1.745750e+10   6.265616e-01  -6.344941e-01  -2.692858e-01  -2.832394e-02   9.905390e-02   1.056886e-01   9.051982e-01  -4.567806e-01  
 1.845500e+10   5.950615e-01  -6.503574e-01  -2.821862e-01  -8.173316e-03   1.060685e-01   1.055015e-01   8.907272e-01  -4.822250e-01  
 1.945250e+10   5.639043e-01  -6.641121e-01  -2.929782e-01   1.334147e-02   1.127618e-01   1.047939e-01   8.751370e-01  -5.069994e-01  
 2.045000e+10   5.332419e-01  -6.758858e-01  -3.015686e-01   3.592323e-02   1.190988e-01   1.036250e-01   8.584829e-01  -5.310023e-01  
 2.144750e+10   5.032045e-01  -6.858146e-01  -3.079076e-01   5.927757e-02   1.250532e-01   1.020545e-01   8.408327e-01  -5.541415e-01  
 2.244500e+10   4.739006e-01  -6.940404e-01  -3.119862e-01   8.311900e-02   1.306077e-01   1.001415e-01   8.222649e-01  -5.763355e-01  
 2.344250e+10   4.454181e-01  -7.007075e-01  -3.138315e-01   1.071762e-01   1.357526e-01   9.794352e-02   8.028659e-01  -5.975150e-01  
 2.444000e+10   4.178250e-01  -7.059597e-01  -3.135033e-01   1.311961e-01   1.404855e-01   9.551525e-02   7.827285e-01  -6.176226e-01  
 2.543750e+10   3.911710e-01  -7.099383e-01  -3.110885e-01   1.549471e-01   1.448101e-01   9.290814e-02   7.619494e-01  -6.366142e-01  
 2.643500e+10   3.654893e-01  -7.127801e-01  -3.066968e-01   1.782212e-01   1.487356e-01   9.016971e-02   7.406271e-01  -6.544577e-01  
 2.743250e+10   3.407982e-01  -7.146157e-01  -3.004555e-01   2.008356e-01   1.522753e-01   8.734324e-02   7.188603e-01  -6.711335e-01  
 2.843000e+10   3.171030e-01  -7.155682e-01  -2.925055e-01   2.226325e-01   1.554465e-01   8.446752e-02   6.967462e-01  -6.866332e-01  
 2.942750e+10   2.943976e-01  -7.157526e-01  -2.829968e-01   2.434796e-01   1.582690e-01   8.157685e-02   6.743792e-01  -7.009590e-01  
 3.042500e+10   2.726668e-01  -7.152752e-01  -2.720846e-01   2.632691e-01   1.607646e-01   7.870103e-02   6.518497e-01  -7.141225e-01  
 3.142250e+10   2.518875e-01  -7.142332e-01  -2.599261e-01   2.819162e-01   1.629565e-01   7.586554e-02   6.292428e-01  -7.261439e-01  
 3.242000e+10   2.320306e-01  -7.127146e-01  -2.466775e-01   2.993579e-01   1.648686e-01   7.309171e-02   6.066383e-01  -7.370506e-01  
 3.341750e+10   2.130620e-01  -7.107987e-01  -2.324916e-01   3.155508e-01   1.665249e-01   7.039706e-02   5.841099e-01  -7.468763e-01  
 3.441500e+10   1.949445e-01  -7.085561e-01  -2.175158e-01   3.304699e-01   1.679494e-01   6.779555e-02   5.617245e-01  -7.556596e-01  
 3.541250e+10   1.776383e-01  -7.060490e-01  -2.018909e-01   3.441055e-01   1.691654e-01   6.529791e-02   5.395430e-01  -7.634434e-01  
 3.641000e+10   1.611023e-01  -7.033322e-01  -1.857492e-01   3.564621e-01   1.701953e-01   6.291201e-02   5.176192e-01  -7.702736e-01  
 3.740750e+10   1.452949e-01  -7.004533e-01  -1.692144e-01   3.675562e-01   1.710606e-01   6.064316e-02   4.960009e-01  -7.761983e-01  
 3.840500e+10   1.301745e-01  -6.974531e-01  -1.524008e-01   3.774141e-01   1.717815e-01   5.849444e-02   4.747295e-01  -7.812670e-01  
 3.940250e+10   1.157003e-01  -6.943667e-01  -1.354129e-01   3.860706e-01   1.723769e-01   5.646705e-02   4.538403e-01  -7.855300e-01  
 4.040000e+10   1.018325e-01  -6.912237e-01  -1.183456e-01   3.935671e-01   1.728642e-01   5.456052e-02   4.333634e-01  -7.890378e-01  
 4.139750e+10   8.853265e-02  -6.880489e-01  -1.012844e-01   3.999502e-01   1.732597e-01   5.277306e-02   4.133234e-01  -7.918404e-01  
 4.239500e+10   7.576415e-02  -6.848631e-01  -8.430546e-02   4.052707e-01   1.735780e-01   5.110176e-02   3.937400e-01  -7.939870e-01  
 4.339250e+10   6.349210e-02  -6.816829e-01  -6.747606e-02   4.095818e-01   1.738323e-01   4.954281e-02   3.746287e-01  -7.955255e-01  
 4.439000e+10   5.168357e-02  -6.785220e-01  -5.085510e-02   4.129389e-01   1.740349e-01   4.809172e-02   3.560007e-01  -7.965026e-01  
 4.538750e+10   4.030765e-02  -6.753912e-01  -3.449362e-02   4.153981e-01   1.741962e-01   4.674345e-02   3.378640e-01  -7.969630e-01  
 4.638500e+10   2.933540e-02  -6.722989e-01  -1.843530e-02   4.170156e-01   1.743260e-01   4.549260e-02   3.202228e-01  -7.969497e-01  
 4.738250e+10   1.873989e-02  -6.692512e-01  -2.717054e-03   4.178475e-01   1.744325e-01   4.433351e-02   3.030787e-01  -7.965038e-01  
 4.838000e+10   8.496118e-03  -6.662528e-01   1.263039e-02   4.179485e-01   1.745231e-01   4.326039e-02   2.864310e-01  -7.956640e-01  
 4.937750e+10  -1.419049e-03  -6.633067e-01   2.758195e-02   4.173725e-01   1.746043e-01   4.226740e-02   2.702762e-01  -7.944672e-01  
 5.037500e+10  -1.102697e-02  -6.604149e-01   4.211766e-02   4.161713e-01   1.746814e-01   4.134873e-02   2.546094e-01  -7.929480e-01  
 5.137250e+10  -2.034729e-02  -6.575781e-01   5.622212e-02   4.143950e-01   1.747592e-01   4.049865e-02   2.394238e-01  -7.911390e-01  
 5.237000e+10  -2.939809e-02  -6.547963e-01   6.988404e-02   4.120917e-01   1.748416e-01   3.971158e-02   2.247114e-01  -7.890707e-01  
 5.336750e+10  -3.819594e-02  -6.520692e-01   8.309575e-02   4.093069e-01   1.749319e-01   3.898212e-02   2.104627e-01  -7.867714e-01  
 5.436500e+10  -4.675603e-02  -6.493955e-01   9.585280e-02   4.060843e-01   1.750327e-01   3.830508e-02   1.966676e-01  -7.842677e-01  
 5.536250e+10  -5.509227e-02  -6.467737e-01   1.081535e-01   4.024649e-01   1.751463e-01   3.767551e-02   1.833151e-01  -7.815841e-01  
 5.636000e+10  -6.321738e-02  -6.442022e-01   1.199987e-01   3.984874e-01   1.752744e-01   3.708869e-02   1.703935e-01  -7.787433e-01  
 5.735750e+10  -7.114298e-02  -6.416789e-01   1.313913e-01   3.941884e-01   1.754181e-01   3.654016e-02   1.578908e-01  -7.757664e-01  
 5.835500e+10  -7.887970e-02  -6.392018e-01   1.423359e-01   3.896018e-01   1.755785e-01   3.602575e-02   1.457945e-01  -7.726728e-01  
 5.935250e+10  -8.643727e-02  -6.367686e-01   1.528389e-01   3.847596e-01   1.757561e-01   3.554152e-02   1.340920e-01  -7.694803e-01  
 6.035000e+10  -9.382457e-02  -6.343773e-01   1.629078e-01   3.796915e-01   1.759513e-01   3.508381e-02   1.227706e-01  -7.662051e-01  
 6.134750e+10  -1.010497e-01  -6.320256e-01   1.725512e-01   3.744252e-01   1.761640e-01   3.464922e-02   1.118174e-01  -7.628623e-01  
 6.234500e+10  -1.081202e-01  -6.297114e-01   1.817786e-01   3.689864e-01   1.763943e-01   3.423458e-02   1.012197e-01  -7.594656e-01  
 6.334250e+10  -1.150427e-01  -6.274327e-01   1.906002e-01   3.633986e-01   1.766419e-01   3.383698e-02   9.096486e-02  -7.560274e-01  
 6.434000e+10  -1.218236e-01  -6.251873e-01   1.990267e-01   3.576840e-01   1.769062e-01   3.345373e-02   8.104032e-02  -7.525590e-01  
 6.533750e+10  -1.284686e-01  -6.229734e-01   2.070694e-01   3.518626e-01   1.771868e-01   3.308238e-02   7.143377e-02  -7.490708e-01  
 6.633500e+10  -1.349831e-01  -6.207893e-01   2.147396e-01   3.459532e-01   1.774831e-01   3.272067e-02   6.213315e-02  -7.455720e-01  
 6.733250e+10  -1.413718e-01  -6.186332e-01   2.220491e-01   3.399727e-01   1.777942e-01   3.236655e-02   5.312661e-02  -7.420710e-01  
 6.833000e+10  -1.476393e-01  -6.165035e-01   2.290097e-01   3.339369e-01   1.781195e-01   3.201817e-02   4.440264e-02  -7.385755e-01  
 6.932750e+10  -1.537897e-01  -6.143988e-01   2.356330e-01   3.278600e-01   1.784580e-01   3.167383e-02   3.594999e-02  -7.350920e-01  
 7.032500e+10  -1.598269e-01  -6.123177e-01   2.419309e-01   3.217552e-01   1.788090e-01   3.133201e-02   2.775776e-02  -7.316269e-01  
 7.132250e+10  -1.657546e-01  -6.102589e-01   2.479151e-01   3.156343e-01   1.791716e-01   3.099135e-02   1.981536e-02  -7.281853e-01  
 7.232000e+10  -1.715761e-01  -6.082214e-01   2.535970e-01   3.095081e-01   1.795448e-01   3.065063e-02   1.211256e-02  -7.247723e-01  
 7.331750e+10  -1.772944e-01  -6.062040e-01   2.589881e-01   3.033865e-01   1.799278e-01   3.030876e-02   4.639437e-03  -7.213919e-01  
 7.431500e+10  -1.829126e-01  -6.042059e-01   2.640994e-01   2.972784e-01   1.803197e-01   2.996478e-02  -2.613561e-03  -7.180479e-01  
 7.531250e+10  -1.884334e-01  -6.022261e-01   2.689419e-01   2.911918e-01   1.807195e-01   2.961783e-02  -9.655659e-03  -7.147436e-01  
 7.631000e+10  -1.938595e-01  -6.002639e-01   2.735262e-01   2.851338e-01   1.811265e-01   2.926719e-02  -1.649573e-02  -7.114818e-01  
 7.730750e+10  -1.991932e-01  -5.983185e-01   2.778627e-01   2.791110e-01   1.815398e-01   2.891219e-02  -2.314233e-02  -7.082650e-01  
 7.830500e+10  -2.044370e-01  -5.963895e-01   2.819614e-01   2.731292e-01   1.819586e-01   2.855230e-02  -2.960366e-02  -7.050952e-01  
 7.930250e+10  -2.095930e-01  -5.944761e-01   2.858321e-01   2.671935e-01   1.823820e-01   2.818702e-02  -3.588763e-02  -7.019742e-01  
 8.030000e+10  -2.146634e-01  -5.925780e-01   2.894844e-01   2.613085e-01   1.828092e-01   2.781597e-02  -4.200180e-02  -6.989035e-01  
 8.129750e+10  -2.196501e-01  -5.906947e-01   2.929273e-01   2.554782e-01   1.832397e-01   2.743881e-02  -4.795344e-02  -6.958842e-01  
 8.229500e+10  -2.245552e-01  -5.888259e-01   2.961697e-01   2.497064e-01   1.836725e-01   2.705528e-02  -5.374951e-02  -6.929172e-01  
 8.329250e+10  -2.293804e-01  -5.869711e-01   2.992202e-01   2.439959e-01   1.841070e-01   2.666516e-02  -5.939669e-02  -6.900034e-01  
 8.429000e+10  -2.341276e-01  -5.851302e-01   3.020869e-01   2.383497e-01   1.845426e-01   2.626829e-02  -6.490136e-02  -6.871432e-01  
 8.528750e+10  -2.387985e-01  -5.833029e-01   3.047779e-01   2.327699e-01   1.849787e-01   2.586455e-02  -7.026965e-02  -6.843370e-01  
 8.628500e+10  -2.433947e-01  -5.814890e-01   3.073007e-01   2.272587e-01   1.854146e-01   2.545388e-02  -7.550740e-02  -6.815848e-01  
 8.728250e+10  -2.479178e-01  -5.796883e-01   3.096628e-01   2.218176e-01   1.858497e-01   2.503623e-02  -8.062021e-02  -6.788869e-01  
 8.828000e+10  -2.523695e-01  -5.779006e-01   3.118711e-01   2.164481e-01   1.862837e-01   2.461160e-02  -8.561343e-02  -6.762430e-01  
 8.927750e+10  -2.567511e-01  -5.761260e-01   3.139324e-01   2.111513e-01   1.867159e-01   2.418003e-02  -9.049217e-02  -6.736530e-01  
 9.027500e+10  -2.610642e-01  -5.743641e-01   3.158533e-01   2.059281e-01   1.871458e-01   2.374156e-02  -9.526132e-02  -6.711165e-01  
 9.127250e+10  -2.653101e-01  -5.726151e-01   3.176399e-01   2.007791e-01   1.875731e-01   2.329627e-02  -9.992553e-02  -6.686331e-01  
 9.227000e+10  -2.694904e-01  -5.708789e-01   3.192983e-01   1.957049e-01   1.879974e-01   2.284426e-02  -1.044893e-01  -6.662023e-01  
 9.326750e+10  -2.736063e-01  -5.691553e-01   3.208342e-01   1.907058e-01   1.884181e-01   2.238565e-02  -1.089568e-01  -6.638235e-01  
 9.426500e+10  -2.776591e-01  -5.674444e-01   3.222530e-01   1.857820e-01   1.888350e-01   2.192057e-02  -1.133322e-01  -6.614961e-01  
 9.526250e+10  -2.816501e-01  -5.657461e-01   3.235600e-01   1.809334e-01   1.892478e-01   2.144917e-02  -1.176193e-01  -6.592195e-01  
 9.626000e+10  -2.855806e-01  -5.640605e-01   3.247603e-01   1.761599e-01   1.896560e-01   2.097159e-02  -1.218219e-01  -6.569928e-01  
 9.725750e+10  -2.894519e-01  -5.623875e-01   3.258587e-01   1.714612e-01   1.900595e-01   2.048802e-02  -1.259433e-01  -6.548153e-01  
 9.825500e+10  -2.932650e-01  -5.607272e-01   3.268598e-01   1.668372e-01   1.904579e-01   1.999863e-02  -1.299872e-01  -6.526861e-01  
 9.925250e+10  -2.970212e-01  -5.590795e-01   3.277680e-01   1.622872e-01   1.908511e-01   1.950360e-02  -1.339565e-01  -6.506045e-01  
 1.002500e+11  -3.007216e-01  -5.574445e-01   3.285875e-01   1.578109e-01   1.912387e-01   1.900312e-02  -1.378545e-01  -6.485696e-01  
 1.012475e+11  -3.043674e-01  -5.558221e-01   3.293224e-01   1.534075e-01   1.916206e-01   1.849738e-02  -1.416840e-01  -6.465804e-01  
 1.022450e+11  -3.079596e-01  -5.542125e-01   3.299764e-01   1.490766e-01   1.919965e-01   1.798658e-02  -1.454478e-01  -6.446360e-01  
 1.032425e+11  -3.114993e-01  -5.526156e-01   3.305534e-01   1.448173e-01   1.923664e-01   1.747093e-02  -1.491486e-01  -6.427356e-01  
 1.042400e+11  -3.149877e-01  -5.510314e-01   3.310568e-01   1.406288e-01   1.927301e-01   1.695062e-02  -1.527889e-01  -6.408782e-01  
 1.052375e+11  -3.184256e-01  -5.494600e-01   3.314900e-01   1.365105e-01   1.930873e-01   1.642585e-02  -1.563711e-01  -6.390629e-01  
 1.062350e+11  -3.218142e-01  -5.479013e-01   3.318562e-01   1.324615e-01   1.934381e-01   1.589683e-02  -1.598976e-01  -6.372887e-01  
 1.072325e+11  -3.251543e-01  -5.463554e-01   3.321585e-01   1.284808e-01   1.937822e-01   1.536376e-02  -1.633705e-01  -6.355548e-01  
 1.082300e+11  -3.284471e-01  -5.448223e-01   3.323999e-01   1.245676e-01   1.941196e-01   1.482683e-02  -1.667920e-01  -6.338601e-01  
 1.092275e+11  -3.316934e-01  -5.433021e-01   3.325831e-01   1.207209e-01   1.944502e-01   1.428625e-02  -1.701640e-01  -6.322037e-01  
 1.102250e+11  -3.348942e-01  -5.417946e-01   3.327109e-01   1.169399e-01   1.947739e-01   1.374222e-02  -1.734884e-01  -6.305847e-01  
 1.112225e+11  -3.380504e-01  -5.402999e-01   3.327858e-01   1.132236e-01   1.950907e-01   1.319492e-02  -1.767672e-01  -6.290023e-01  
 1.122200e+11  -3.411629e-01  -5.388181e-01   3.328102e-01   1.095710e-01   1.954005e-01   1.264456e-02  -1.800019e-01  -6.274554e-01  
 1.132175e+11  -3.442325e-01  -5.373490e-01   3.327866e-01   1.059810e-01   1.957033e-01   1.209131e-02  -1.831943e-01  -6.259432e-01  
 1.142150e+11  -3.472602e-01  -5.358928e-01   3.327171e-01   1.024529e-01   1.959990e-01   1.153537e-02  -1.863460e-01  -6.244647e-01  
 1.152125e+11  -3.502467e-01  -5.344494e-01   3.326040e-01   9.898547e-02   1.962877e-01   1.097692e-02  -1.894583e-01  -6.230192e-01  
 1.162100e+11  -3.531930e-01  -5.330187e-01   3.324492e-01   9.557783e-02   1.965692e-01   1.041613e-02  -1.925329e-01  -6.216058e-01  
 1.172075e+11  -3.560997e-01  -5.316008e-01   3.322547e-01   9.222899e-02   1.968436e-01   9.853180e-03  -1.955710e-01  -6.202235e-01  
 1.182050e+11  -3.589678e-01  -5.301956e-01   3.320224e-01   8.893795e-02   1.971110e-01   9.288242e-03  -1.985740e-01  -6.188715e-01  
 1.192025e+11  -3.617979e-01  -5.288032e-01   3.317541e-01   8.570373e-02   1.973712e-01   8.721483e-03  -2.015431e-01  -6.175491e-01  
 1.202000e+11  -3.645909e-01  -5.274234e-01   3.314515e-01   8.252537e-02   1.976243e-01   8.153064e-03  -2.044794e-01  -6.162554e-01  
 1.211975e+11  -3.673475e-01  -5.260563e-01   3.311162e-01   7.940189e-02   1.978704e-01   7.583145e-03  -2.073842e-01  -6.149897e-01  
 1.221950e+11  -3.700684e-01  -5.247018e-01   3.307498e-01   7.633234e-02   1.981094e-01   7.011880e-03  -2.102585e-01  -6.137510e-01  
 1.231925e+11  -3.727544e-01  -5.233599e-01   3.303537e-01   7.331575e-02   1.983414e-01   6.439418e-03  -2.131033e-01  -6.125388e-01  
 1.241900e+11  -3.754061e-01  -5.220305e-01   3.299295e-01   7.035120e-02   1.985665e-01   5.865909e-03  -2.159197e-01  -6.113522e-01  
 1.251875e+11  -3.780242e-01  -5.207135e-01   3.294785e-01   6.743775e-02   1.987845e-01   5.291490e-03  -2.187085e-01  -6.101904e-01  
 1.261850e+11  -3.806094e-01  -5.194091e-01   3.290019e-01   6.457448e-02   1.989957e-01   4.716303e-03  -2.214706e-01  -6.090528e-01  
 1.271825e+11  -3.831624e-01  -5.181169e-01   3.285011e-01   6.176047e-02   1.992000e-01   4.140480e-03  -2.242070e-01  -6.079388e-01  
 1.281800e+11  -3.856838e-01  -5.168372e-01   3.279772e-01   5.899485e-02   1.993975e-01   3.564149e-03  -2.269184e-01  -6.068475e-01  
 1.291775e+11  -3.881742e-01  -5.155696e-01   3.274314e-01   5.627672e-02   1.995882e-01   2.987440e-03  -2.296056e-01  -6.057783e-01  
 1.301750e+11  -3.906343e-01  -5.143143e-01   3.268648e-01   5.360520e-02   1.997722e-01   2.410469e-03  -2.322694e-01  -6.047305e-01  
 1.311725e+11  -3.930647e-01  -5.130711e-01   3.262784e-01   5.097945e-02   1.999496e-01   1.833359e-03  -2.349104e-01  -6.037036e-01  
 1.321700e+11  -3.954659e-01  -5.118400e-01   3.256732e-01   4.839862e-02   2.001204e-01   1.256219e-03  -2.375294e-01  -6.026969e-01  
 1.331675e+11  -3.978386e-01  -5.106208e-01   3.250502e-01   4.586187e-02   2.002846e-01   6.791623e-04  -2.401270e-01  -6.017098e-01  
 1.341650e+11  -4.001832e-01  -5.094136e-01   3.244103e-01   4.336838e-02   2.004424e-01   1.022954e-04  -2.427037e-01  -6.007417e-01  
 1.351625e+11  -4.025005e-01  -5.082182e-01   3.237544e-01   4.091736e-02   2.005938e-01  -4.742842e-04  -2.452603e-01  -5.997920e-01  
 1.361600e+11  -4.047908e-01  -5.070346e-01   3.230833e-01   3.850802e-02   2.007388e-01  -1.050473e-03  -2.477972e-01  -5.988602e-01  
 1.371575e+11  -4.070548e-01  -5.058627e-01   3.223978e-01   3.613956e-02   2.008775e-01  -1.626178e-03  -2.503150e-01  -5.979456e-01  
 1.381550e+11  -4.092929e-01  -5.047024e-01   3.216987e-01   3.381125e-02   2.010101e-01  -2.201304e-03  -2.528142e-01  -5.970479e-01  
 1.391525e+11  -4.115057e-01  -5.035536e-01   3.209868e-01   3.152231e-02   2.011365e-01  -2.775766e-03  -2.552953e-01  -5.961664e-01  
 1.401500e+11  -4.136937e-01  -5.024162e-01   3.202627e-01   2.927203e-02   2.012568e-01  -3.349477e-03  -2.577588e-01  -5.953006e-01  
 1.411475e+11  -4.158573e-01  -5.012902e-01   3.195271e-01   2.705967e-02   2.013712e-01  -3.922358e-03  -2.602051e-01  -5.944501e-01  
 1.421450e+11  -4.179971e-01  -5.001755e-01   3.187806e-01   2.488453e-02   2.014796e-01  -4.494327e-03  -2.626346e-01  -5.936143e-01  
 1.431425e+11  -4.201135e-01  -4.990719e-01   3.180240e-01   2.274591e-02   2.015822e-01  -5.065309e-03  -2.650479e-01  -5.927929e-01  
 1.441400e+11  -4.222069e-01  -4.979794e-01   3.172577e-01   2.064313e-02   2.016790e-01  -5.635232e-03  -2.674451e-01  -5.919853e-01  
