!2-port S-parameter file
!Title: **.subckt s_param_testbench_lna
!Generated by ngspice at Wed Oct 26 01:11:20  2022
# Hz S RI R 50
!freq            ReS11           ImS11           ReS21           ImS21           ReS12           ImS12           ReS22           ImS22         
 5.000000e+08   9.493055e-01  -1.858741e-03  -8.059814e-05   5.804759e-03  -2.591792e-01   7.236082e-03   9.997389e-01  -1.297922e-02  
 1.497500e+09   9.642748e-01  -2.377223e-02   2.082308e-05   1.798904e-02  -2.550799e-01   1.363031e-02   9.985713e-01  -3.810834e-02  
 2.495000e+09   9.703564e-01  -5.456421e-02   1.016303e-03   3.038852e-02  -2.563114e-01   1.875726e-02   9.974441e-01  -6.276577e-02  
 3.492500e+09   9.709770e-01  -8.529091e-02   2.756164e-03   4.268856e-02  -2.595931e-01   2.547927e-02   9.962454e-01  -8.753592e-02  
 4.490000e+09   9.688874e-01  -1.150884e-01   5.147537e-03   5.484361e-02  -2.638510e-01   3.351798e-02   9.947738e-01  -1.125662e-01  
 5.487500e+09   9.650883e-01  -1.441062e-01   8.156927e-03   6.682967e-02  -2.687865e-01   4.278223e-02   9.928950e-01  -1.379033e-01  
 6.485000e+09   9.599686e-01  -1.724971e-01   1.176689e-02   7.861871e-02  -2.741971e-01   5.331944e-02   9.905008e-01  -1.635675e-01  
 7.482500e+09   9.537014e-01  -2.003431e-01   1.596320e-02   9.017919e-02  -2.798707e-01   6.520466e-02   9.874908e-01  -1.895625e-01  
 8.480000e+09   9.463766e-01  -2.276757e-01   2.073085e-02   1.014777e-01  -2.855777e-01   7.849696e-02   9.837663e-01  -2.158754e-01  
 9.477500e+09   9.380503e-01  -2.544947e-01   2.605260e-02   1.124802e-01  -2.910773e-01   9.322307e-02   9.792318e-01  -2.424757e-01  
 1.047500e+10   9.287648e-01  -2.807810e-01   3.190840e-02   1.231530e-01  -2.961263e-01   1.093716e-01   9.737963e-01  -2.693149e-01  
 1.147250e+10   9.185581e-01  -3.065047e-01   3.827520e-02   1.334632e-01  -3.004873e-01   1.268919e-01   9.673772e-01  -2.963276e-01  
 1.247000e+10   9.074684e-01  -3.316293e-01   4.512693e-02   1.433794e-01  -3.039360e-01   1.456963e-01   9.599023e-01  -3.234334e-01  
 1.346750e+10   8.955358e-01  -3.561159e-01   5.243463e-02   1.528724e-01  -3.062680e-01   1.656630e-01   9.513130e-01  -3.505383e-01  
 1.446500e+10   8.828039e-01  -3.799247e-01   6.016663e-02   1.619153e-01  -3.073040e-01   1.866411e-01   9.415658e-01  -3.775384e-01  
 1.546250e+10   8.693199e-01  -4.030174e-01   6.828889e-02   1.704842e-01  -3.068932e-01   2.084562e-01   9.306342e-01  -4.043224e-01  
 1.646000e+10   8.551343e-01  -4.253580e-01   7.676533e-02   1.785584e-01  -3.049167e-01   2.309161e-01   9.185089e-01  -4.307752e-01  
 1.745750e+10   8.403012e-01  -4.469143e-01   8.555829e-02   1.861208e-01  -3.012886e-01   2.538172e-01   9.051982e-01  -4.567806e-01  
 1.845500e+10   8.248772e-01  -4.676583e-01   9.462895e-02   1.931577e-01  -2.959558e-01   2.769499e-01   8.907272e-01  -4.822250e-01  
 1.945250e+10   8.089209e-01  -4.875670e-01   1.039378e-01   1.996593e-01  -2.888979e-01   3.001050e-01   8.751370e-01  -5.069994e-01  
 2.045000e+10   7.924926e-01  -5.066228e-01   1.134453e-01   2.056199e-01  -2.801247e-01   3.230782e-01   8.584829e-01  -5.310023e-01  
 2.144750e+10   7.756530e-01  -5.248135e-01   1.231121e-01   2.110370e-01  -2.696741e-01   3.456744e-01   8.408327e-01  -5.541415e-01  
 2.244500e+10   7.584629e-01  -5.421324e-01   1.328996e-01   2.159121e-01  -2.576086e-01   3.677121e-01   8.222649e-01  -5.763355e-01  
 2.344250e+10   7.409820e-01  -5.585783e-01   1.427703e-01   2.202499e-01  -2.440122e-01   3.890253e-01   8.028659e-01  -5.975150e-01  
 2.444000e+10   7.232688e-01  -5.741551e-01   1.526886e-01   2.240584e-01  -2.289866e-01   4.094666e-01   7.827285e-01  -6.176226e-01  
 2.543750e+10   7.053798e-01  -5.888718e-01   1.626203e-01   2.273482e-01  -2.126475e-01   4.289076e-01   7.619494e-01  -6.366142e-01  
 2.643500e+10   6.873689e-01  -6.027416e-01   1.725335e-01   2.301326e-01  -1.951206e-01   4.472401e-01   7.406271e-01  -6.544577e-01  
 2.743250e+10   6.692870e-01  -6.157818e-01   1.823985e-01   2.324271e-01  -1.765390e-01   4.643763e-01   7.188603e-01  -6.711335e-01  
 2.843000e+10   6.511817e-01  -6.280131e-01   1.921882e-01   2.342488e-01  -1.570391e-01   4.802477e-01   6.967462e-01  -6.866332e-01  
 2.942750e+10   6.330972e-01  -6.394593e-01   2.018776e-01   2.356165e-01  -1.367585e-01   4.948048e-01   6.743792e-01  -7.009590e-01  
 3.042500e+10   6.150742e-01  -6.501467e-01   2.114446e-01   2.365499e-01  -1.158333e-01   5.080156e-01   6.518497e-01  -7.141225e-01  
 3.142250e+10   5.971494e-01  -6.601032e-01   2.208693e-01   2.370698e-01  -9.439600e-02   5.198645e-01   6.292428e-01  -7.261439e-01  
 3.242000e+10   5.793561e-01  -6.693587e-01   2.301343e-01   2.371972e-01  -7.257375e-02   5.303501e-01   6.066383e-01  -7.370506e-01  
 3.341750e+10   5.617238e-01  -6.779438e-01   2.392245e-01   2.369537e-01  -5.048727e-02   5.394842e-01   5.841099e-01  -7.468763e-01  
 3.441500e+10   5.442786e-01  -6.858899e-01   2.481270e-01   2.363607e-01  -2.824968e-02   5.472896e-01   5.617245e-01  -7.556596e-01  
 3.541250e+10   5.270430e-01  -6.932286e-01   2.568310e-01   2.354397e-01  -5.965825e-03   5.537989e-01   5.395430e-01  -7.634434e-01  
 3.641000e+10   5.100367e-01  -6.999915e-01   2.653276e-01   2.342114e-01   1.626811e-02   5.590523e-01   5.176192e-01  -7.702736e-01  
 3.740750e+10   4.932761e-01  -7.062099e-01   2.736099e-01   2.326967e-01   3.836484e-02   5.630967e-01   4.960009e-01  -7.761983e-01  
 3.840500e+10   4.767748e-01  -7.119146e-01   2.816721e-01   2.309152e-01   6.024593e-02   5.659841e-01   4.747295e-01  -7.812670e-01  
 3.940250e+10   4.605442e-01  -7.171357e-01   2.895105e-01   2.288864e-01   8.184169e-02   5.677702e-01   4.538403e-01  -7.855300e-01  
 4.040000e+10   4.445929e-01  -7.219023e-01   2.971224e-01   2.266288e-01   1.030909e-01   5.685134e-01   4.333634e-01  -7.890378e-01  
 4.139750e+10   4.289278e-01  -7.262426e-01   3.045062e-01   2.241600e-01   1.239403e-01   5.682736e-01   4.133234e-01  -7.918404e-01  
 4.239500e+10   4.135537e-01  -7.301837e-01   3.116615e-01   2.214969e-01   1.443445e-01   5.671120e-01   3.937400e-01  -7.939870e-01  
 4.339250e+10   3.984735e-01  -7.337517e-01   3.185888e-01   2.186557e-01   1.642651e-01   5.650892e-01   3.746287e-01  -7.955255e-01  
 4.439000e+10   3.836891e-01  -7.369712e-01   3.252895e-01   2.156514e-01   1.836702e-01   5.622659e-01   3.560007e-01  -7.965026e-01  
 4.538750e+10   3.692006e-01  -7.398658e-01   3.317655e-01   2.124985e-01   2.025343e-01   5.587013e-01   3.378640e-01  -7.969630e-01  
 4.638500e+10   3.550070e-01  -7.424578e-01   3.380194e-01   2.092104e-01   2.208372e-01   5.544532e-01   3.202228e-01  -7.969497e-01  
 4.738250e+10   3.411067e-01  -7.447684e-01   3.440542e-01   2.057999e-01   2.385638e-01   5.495775e-01   3.030787e-01  -7.965038e-01  
 4.838000e+10   3.274966e-01  -7.468176e-01   3.498734e-01   2.022787e-01   2.557036e-01   5.441283e-01   2.864310e-01  -7.956640e-01  
 4.937750e+10   3.141734e-01  -7.486240e-01   3.554810e-01   1.986582e-01   2.722500e-01   5.381570e-01   2.702762e-01  -7.944672e-01  
 5.037500e+10   3.011328e-01  -7.502054e-01   3.608809e-01   1.949486e-01   2.882001e-01   5.317129e-01   2.546094e-01  -7.929480e-01  
 5.137250e+10   2.883703e-01  -7.515783e-01   3.660776e-01   1.911597e-01   3.035542e-01   5.248425e-01   2.394238e-01  -7.911390e-01  
 5.237000e+10   2.758807e-01  -7.527582e-01   3.710754e-01   1.873006e-01   3.183151e-01   5.175901e-01   2.247114e-01  -7.890707e-01  
 5.336750e+10   2.636585e-01  -7.537596e-01   3.758792e-01   1.833796e-01   3.324882e-01   5.099970e-01   2.104627e-01  -7.867714e-01  
 5.436500e+10   2.516981e-01  -7.545960e-01   3.804936e-01   1.794046e-01   3.460808e-01   5.021024e-01   1.966676e-01  -7.842677e-01  
 5.536250e+10   2.399934e-01  -7.552803e-01   3.849233e-01   1.753830e-01   3.591021e-01   4.939427e-01   1.833151e-01  -7.815841e-01  
 5.636000e+10   2.285385e-01  -7.558240e-01   3.891732e-01   1.713213e-01   3.715627e-01   4.855520e-01   1.703935e-01  -7.787433e-01  
 5.735750e+10   2.173271e-01  -7.562383e-01   3.932480e-01   1.672260e-01   3.834742e-01   4.769620e-01   1.578908e-01  -7.757664e-01  
 5.835500e+10   2.063529e-01  -7.565333e-01   3.971526e-01   1.631027e-01   3.948494e-01   4.682021e-01   1.457945e-01  -7.726728e-01  
 5.935250e+10   1.956097e-01  -7.567187e-01   4.008916e-01   1.589569e-01   4.057019e-01   4.592996e-01   1.340920e-01  -7.694803e-01  
 6.035000e+10   1.850912e-01  -7.568031e-01   4.044698e-01   1.547936e-01   4.160457e-01   4.502796e-01   1.227706e-01  -7.662051e-01  
 6.134750e+10   1.747911e-01  -7.567949e-01   4.078918e-01   1.506172e-01   4.258955e-01   4.411655e-01   1.118174e-01  -7.628623e-01  
 6.234500e+10   1.647033e-01  -7.567016e-01   4.111621e-01   1.464322e-01   4.352661e-01   4.319785e-01   1.012197e-01  -7.594656e-01  
 6.334250e+10   1.548216e-01  -7.565303e-01   4.142852e-01   1.422423e-01   4.441726e-01   4.227382e-01   9.096486e-02  -7.560274e-01  
 6.434000e+10   1.451400e-01  -7.562876e-01   4.172654e-01   1.380513e-01   4.526302e-01   4.134626e-01   8.104032e-02  -7.525590e-01  
 6.533750e+10   1.356526e-01  -7.559796e-01   4.201071e-01   1.338624e-01   4.606539e-01   4.041681e-01   7.143377e-02  -7.490708e-01  
 6.633500e+10   1.263536e-01  -7.556118e-01   4.228143e-01   1.296787e-01   4.682590e-01   3.948696e-01   6.213315e-02  -7.455720e-01  
 6.733250e+10   1.172373e-01  -7.551895e-01   4.253911e-01   1.255031e-01   4.754602e-01   3.855807e-01   5.312661e-02  -7.420710e-01  
 6.833000e+10   1.082981e-01  -7.547175e-01   4.278416e-01   1.213381e-01   4.822724e-01   3.763138e-01   4.440264e-02  -7.385755e-01  
 6.932750e+10   9.953066e-02  -7.542002e-01   4.301696e-01   1.171862e-01   4.887099e-01   3.670800e-01   3.594999e-02  -7.350920e-01  
 7.032500e+10   9.092969e-02  -7.536417e-01   4.323787e-01   1.130496e-01   4.947871e-01   3.578893e-01   2.775776e-02  -7.316269e-01  
 7.132250e+10   8.249007e-02  -7.530459e-01   4.344727e-01   1.089302e-01   5.005177e-01   3.487509e-01   1.981536e-02  -7.281853e-01  
 7.232000e+10   7.420679e-02  -7.524162e-01   4.364552e-01   1.048300e-01   5.059154e-01   3.396728e-01   1.211256e-02  -7.247723e-01  
 7.331750e+10   6.607502e-02  -7.517559e-01   4.383295e-01   1.007507e-01   5.109932e-01   3.306623e-01   4.639437e-03  -7.213919e-01  
 7.431500e+10   5.809007e-02  -7.510680e-01   4.400990e-01   9.669376e-02   5.157640e-01   3.217259e-01  -2.613561e-03  -7.180479e-01  
 7.531250e+10   5.024738e-02  -7.503551e-01   4.417669e-01   9.266066e-02   5.202402e-01   3.128692e-01  -9.655659e-03  -7.147436e-01  
 7.631000e+10   4.254254e-02  -7.496199e-01   4.433364e-01   8.865269e-02   5.244339e-01   3.040974e-01  -1.649573e-02  -7.114818e-01  
 7.730750e+10   3.497128e-02  -7.488647e-01   4.448105e-01   8.467104e-02   5.283566e-01   2.954148e-01  -2.314233e-02  -7.082650e-01  
 7.830500e+10   2.752946e-02  -7.480916e-01   4.461922e-01   8.071679e-02   5.320196e-01   2.868254e-01  -2.960366e-02  -7.050952e-01  
 7.930250e+10   2.021310e-02  -7.473025e-01   4.474843e-01   7.679092e-02   5.354338e-01   2.783324e-01  -3.588763e-02  -7.019742e-01  
 8.030000e+10   1.301833e-02  -7.464994e-01   4.486896e-01   7.289432e-02   5.386096e-01   2.699388e-01  -4.200180e-02  -6.989035e-01  
 8.129750e+10   5.941420e-03  -7.456837e-01   4.498108e-01   6.902779e-02   5.415571e-01   2.616469e-01  -4.795344e-02  -6.958842e-01  
 8.229500e+10  -1.021237e-03  -7.448571e-01   4.508506e-01   6.519206e-02   5.442860e-01   2.534588e-01  -5.374951e-02  -6.929172e-01  
 8.329250e+10  -7.873119e-03  -7.440210e-01   4.518113e-01   6.138778e-02   5.468056e-01   2.453762e-01  -5.939669e-02  -6.900034e-01  
 8.429000e+10  -1.461759e-02  -7.431765e-01   4.526955e-01   5.761554e-02   5.491248e-01   2.374003e-01  -6.490136e-02  -6.871432e-01  
 8.528750e+10  -2.125789e-02  -7.423250e-01   4.535055e-01   5.387585e-02   5.512524e-01   2.295322e-01  -7.026965e-02  -6.843370e-01  
 8.628500e+10  -2.779715e-02  -7.414673e-01   4.542436e-01   5.016917e-02   5.531965e-01   2.217727e-01  -7.550740e-02  -6.815848e-01  
 8.728250e+10  -3.423839e-02  -7.406046e-01   4.549120e-01   4.649591e-02   5.549651e-01   2.141222e-01  -8.062021e-02  -6.788869e-01  
 8.828000e+10  -4.058451e-02  -7.397376e-01   4.555130e-01   4.285644e-02   5.565658e-01   2.065812e-01  -8.561343e-02  -6.762430e-01  
 8.927750e+10  -4.683834e-02  -7.388671e-01   4.560485e-01   3.925105e-02   5.580059e-01   1.991496e-01  -9.049217e-02  -6.736530e-01  
 9.027500e+10  -5.300257e-02  -7.379940e-01   4.565206e-01   3.568001e-02   5.592924e-01   1.918273e-01  -9.526132e-02  -6.711165e-01  
 9.127250e+10  -5.907982e-02  -7.371187e-01   4.569313e-01   3.214354e-02   5.604320e-01   1.846141e-01  -9.992553e-02  -6.686331e-01  
 9.227000e+10  -6.507259e-02  -7.362420e-01   4.572824e-01   2.864184e-02   5.614312e-01   1.775097e-01  -1.044893e-01  -6.662023e-01  
 9.326750e+10  -7.098333e-02  -7.353643e-01   4.575758e-01   2.517506e-02   5.622960e-01   1.705133e-01  -1.089568e-01  -6.638235e-01  
 9.426500e+10  -7.681436e-02  -7.344861e-01   4.578132e-01   2.174332e-02   5.630324e-01   1.636245e-01  -1.133322e-01  -6.614961e-01  
 9.526250e+10  -8.256794e-02  -7.336078e-01   4.579965e-01   1.834669e-02   5.636460e-01   1.568425e-01  -1.176193e-01  -6.592195e-01  
 9.626000e+10  -8.824625e-02  -7.327298e-01   4.581272e-01   1.498526e-02   5.641423e-01   1.501663e-01  -1.218219e-01  -6.569928e-01  
 9.725750e+10  -9.385137e-02  -7.318525e-01   4.582070e-01   1.165905e-02   5.645263e-01   1.435951e-01  -1.259433e-01  -6.548153e-01  
 9.825500e+10  -9.938532e-02  -7.309761e-01   4.582375e-01   8.368067e-03   5.648031e-01   1.371278e-01  -1.299872e-01  -6.526861e-01  
 9.925250e+10  -1.048501e-01  -7.301009e-01   4.582202e-01   5.112308e-03   5.649774e-01   1.307634e-01  -1.339565e-01  -6.506045e-01  
 1.002500e+11  -1.102474e-01  -7.292270e-01   4.581565e-01   1.891737e-03   5.650536e-01   1.245008e-01  -1.378545e-01  -6.485696e-01  
 1.012475e+11  -1.155793e-01  -7.283548e-01   4.580480e-01  -1.293697e-03   5.650363e-01   1.183388e-01  -1.416840e-01  -6.465804e-01  
 1.022450e+11  -1.208473e-01  -7.274843e-01   4.578959e-01  -4.444066e-03   5.649294e-01   1.122762e-01  -1.454478e-01  -6.446360e-01  
 1.032425e+11  -1.260532e-01  -7.266157e-01   4.577018e-01  -7.559452e-03   5.647370e-01   1.063117e-01  -1.491486e-01  -6.427356e-01  
 1.042400e+11  -1.311986e-01  -7.257491e-01   4.574668e-01  -1.063996e-02   5.644629e-01   1.004441e-01  -1.527889e-01  -6.408782e-01  
 1.052375e+11  -1.362851e-01  -7.248846e-01   4.571922e-01  -1.368571e-02   5.641108e-01   9.467214e-02  -1.563711e-01  -6.390629e-01  
 1.062350e+11  -1.413141e-01  -7.240223e-01   4.568793e-01  -1.669682e-02   5.636840e-01   8.899445e-02  -1.598976e-01  -6.372887e-01  
 1.072325e+11  -1.462871e-01  -7.231622e-01   4.565293e-01  -1.967344e-02   5.631860e-01   8.340973e-02  -1.633705e-01  -6.355548e-01  
 1.082300e+11  -1.512056e-01  -7.223044e-01   4.561434e-01  -2.261573e-02   5.626199e-01   7.791663e-02  -1.667920e-01  -6.338601e-01  
 1.092275e+11  -1.560707e-01  -7.214488e-01   4.557226e-01  -2.552384e-02   5.619888e-01   7.251382e-02  -1.701640e-01  -6.322037e-01  
 1.102250e+11  -1.608839e-01  -7.205956e-01   4.552682e-01  -2.839795e-02   5.612956e-01   6.719997e-02  -1.734884e-01  -6.305847e-01  
 1.112225e+11  -1.656464e-01  -7.197446e-01   4.547811e-01  -3.123825e-02   5.605431e-01   6.197372e-02  -1.767672e-01  -6.290023e-01  
 1.122200e+11  -1.703594e-01  -7.188959e-01   4.542623e-01  -3.404491e-02   5.597341e-01   5.683373e-02  -1.800019e-01  -6.274554e-01  
 1.132175e+11  -1.750240e-01  -7.180494e-01   4.537130e-01  -3.681815e-02   5.588709e-01   5.177866e-02  -1.831943e-01  -6.259432e-01  
 1.142150e+11  -1.796414e-01  -7.172052e-01   4.531341e-01  -3.955817e-02   5.579562e-01   4.680719e-02  -1.863460e-01  -6.244647e-01  
 1.152125e+11  -1.842127e-01  -7.163632e-01   4.525265e-01  -4.226518e-02   5.569923e-01   4.191797e-02  -1.894583e-01  -6.230192e-01  
 1.162100e+11  -1.887389e-01  -7.155232e-01   4.518911e-01  -4.493940e-02   5.559814e-01   3.710971e-02  -1.925329e-01  -6.216058e-01  
 1.172075e+11  -1.932210e-01  -7.146854e-01   4.512289e-01  -4.758104e-02   5.549257e-01   3.238110e-02  -1.955710e-01  -6.202235e-01  
 1.182050e+11  -1.976600e-01  -7.138495e-01   4.505408e-01  -5.019035e-02   5.538273e-01   2.773083e-02  -1.985740e-01  -6.188715e-01  
 1.192025e+11  -2.020569e-01  -7.130156e-01   4.498275e-01  -5.276755e-02   5.526881e-01   2.315763e-02  -2.015431e-01  -6.175491e-01  
 1.202000e+11  -2.064124e-01  -7.121836e-01   4.490899e-01  -5.531288e-02   5.515100e-01   1.866024e-02  -2.044794e-01  -6.162554e-01  
 1.211975e+11  -2.107275e-01  -7.113534e-01   4.483289e-01  -5.782658e-02   5.502949e-01   1.423740e-02  -2.073842e-01  -6.149897e-01  
 1.221950e+11  -2.150031e-01  -7.105249e-01   4.475451e-01  -6.030889e-02   5.490446e-01   9.887863e-03  -2.102585e-01  -6.137510e-01  
 1.231925e+11  -2.192400e-01  -7.096981e-01   4.467395e-01  -6.276007e-02   5.477606e-01   5.610426e-03  -2.131033e-01  -6.125388e-01  
 1.241900e+11  -2.234389e-01  -7.088728e-01   4.459126e-01  -6.518036e-02   5.464445e-01   1.403875e-03  -2.159197e-01  -6.113522e-01  
 1.251875e+11  -2.276006e-01  -7.080490e-01   4.450652e-01  -6.757002e-02   5.450981e-01  -2.732980e-03  -2.187085e-01  -6.101904e-01  
 1.261850e+11  -2.317258e-01  -7.072267e-01   4.441981e-01  -6.992929e-02   5.437226e-01  -6.801300e-03  -2.214706e-01  -6.090528e-01  
 1.271825e+11  -2.358153e-01  -7.064056e-01   4.433118e-01  -7.225844e-02   5.423195e-01  -1.080225e-02  -2.242070e-01  -6.079388e-01  
 1.281800e+11  -2.398697e-01  -7.055858e-01   4.424071e-01  -7.455772e-02   5.408903e-01  -1.473696e-02  -2.269184e-01  -6.068475e-01  
 1.291775e+11  -2.438897e-01  -7.047671e-01   4.414847e-01  -7.682740e-02   5.394361e-01  -1.860654e-02  -2.296056e-01  -6.057783e-01  
 1.301750e+11  -2.478759e-01  -7.039495e-01   4.405451e-01  -7.906773e-02   5.379582e-01  -2.241211e-02  -2.322694e-01  -6.047305e-01  
 1.311725e+11  -2.518290e-01  -7.031329e-01   4.395889e-01  -8.127897e-02   5.364579e-01  -2.615474e-02  -2.349104e-01  -6.037036e-01  
 1.321700e+11  -2.557495e-01  -7.023171e-01   4.386168e-01  -8.346140e-02   5.349363e-01  -2.983550e-02  -2.375294e-01  -6.026969e-01  
 1.331675e+11  -2.596380e-01  -7.015022e-01   4.376293e-01  -8.561527e-02   5.333945e-01  -3.345542e-02  -2.401270e-01  -6.017098e-01  
 1.341650e+11  -2.634951e-01  -7.006880e-01   4.366269e-01  -8.774084e-02   5.318335e-01  -3.701555e-02  -2.427037e-01  -6.007417e-01  
 1.351625e+11  -2.673213e-01  -6.998745e-01   4.356104e-01  -8.983839e-02   5.302544e-01  -4.051690e-02  -2.452603e-01  -5.997920e-01  
 1.361600e+11  -2.711171e-01  -6.990615e-01   4.345801e-01  -9.190817e-02   5.286582e-01  -4.396045e-02  -2.477972e-01  -5.988602e-01  
 1.371575e+11  -2.748831e-01  -6.982490e-01   4.335365e-01  -9.395045e-02   5.270458e-01  -4.734718e-02  -2.503150e-01  -5.979456e-01  
 1.381550e+11  -2.786198e-01  -6.974369e-01   4.324803e-01  -9.596549e-02   5.254180e-01  -5.067805e-02  -2.528142e-01  -5.970479e-01  
 1.391525e+11  -2.823275e-01  -6.966252e-01   4.314119e-01  -9.795356e-02   5.237759e-01  -5.395401e-02  -2.552953e-01  -5.961664e-01  
 1.401500e+11  -2.860068e-01  -6.958137e-01   4.303318e-01  -9.991492e-02   5.221202e-01  -5.717598e-02  -2.577588e-01  -5.953006e-01  
 1.411475e+11  -2.896581e-01  -6.950024e-01   4.292404e-01  -1.018498e-01   5.204516e-01  -6.034486e-02  -2.602051e-01  -5.944501e-01  
 1.421450e+11  -2.932819e-01  -6.941912e-01   4.281381e-01  -1.037586e-01   5.187711e-01  -6.346156e-02  -2.626346e-01  -5.936143e-01  
 1.431425e+11  -2.968785e-01  -6.933800e-01   4.270256e-01  -1.056414e-01   5.170793e-01  -6.652694e-02  -2.650479e-01  -5.927929e-01  
 1.441400e+11  -3.004483e-01  -6.925688e-01   4.259031e-01  -1.074985e-01   5.153769e-01  -6.954186e-02  -2.674451e-01  -5.919853e-01  
